 (1648943103.865089)  can0  1E5   [8]  1C FE CD 30 00 00 02 53
 (1648943103.865891)  can0  014   [5]  00 00 00 10 27
 (1648943103.873031)  can0  012   [8]  E8 03 10 00 00 00 00 00
 (1648943103.875066)  can0  1E5   [8]  1C FE CD 50 00 00 02 73
 (1648943103.875913)  can0  014   [5]  00 00 00 10 27
 (1648943103.883079)  can0  012   [8]  E8 03 10 00 00 00 00 00
 (1648943103.885112)  can0  1E5   [8]  1C FE CD 70 00 00 02 93
 (1648943103.885907)  can0  014   [5]  00 00 00 10 27
 (1648943103.893063)  can0  012   [8]  E8 03 10 00 00 00 00 00
 (1648943103.895070)  can0  1E5   [8]  1C FE CD 10 00 00 02 33
 (1648943103.895910)  can0  014   [5]  00 00 00 10 27
 (1648943103.903031)  can0  012   [8]  E8 03 10 00 00 00 00 00
 (1648943103.905088)  can0  1E5   [8]  1C FE CD 30 00 00 02 53
 (1648943103.905912)  can0  014   [5]  00 00 00 10 27
 (1648943103.913023)  can0  012   [8]  E8 03 10 00 00 00 00 00
 (1648943103.915045)  can0  1E5   [8]  1C FE CD 50 00 00 02 73
 (1648943103.915893)  can0  014   [5]  00 00 00 10 27
 (1648943103.923072)  can0  012   [8]  E8 03 10 00 00 00 00 00
 (1648943103.925074)  can0  1E5   [8]  1C FE CD 70 00 00 02 93
 (1648943103.925877)  can0  014   [5]  00 00 00 10 27
 (1648943103.933077)  can0  012   [8]  E8 03 10 00 00 00 00 00
 (1648943103.935088)  can0  1E5   [8]  1C FE CD 10 00 00 02 33
 (1648943103.935455)  can0  010   [4]  54 B9 1D 00
 (1648943103.935739)  can0  005   [8]  01 00 00 00 00 00 00 00
 (1648943103.935896)  can0  014   [5]  00 00 00 13 27
 (1648943103.943042)  can0  012   [8]  E8 03 10 00 00 00 00 00
 (1648943103.945102)  can0  1E5   [8]  1C FE CD 30 00 00 02 53
 (1648943103.945871)  can0  014   [5]  00 00 00 10 27
 (1648943103.953069)  can0  012   [8]  E8 03 10 00 00 00 00 00
 (1648943103.955069)  can0  1E5   [8]  1C FE CD 50 00 00 02 73
 (1648943103.955897)  can0  014   [5]  00 00 00 0D 27
 (1648943103.963029)  can0  012   [8]  E8 03 10 00 00 00 00 00
 (1648943103.965087)  can0  1E5   [8]  1C FE CD 70 00 00 02 93
 (1648943103.965908)  can0  014   [5]  00 00 00 10 27
 (1648943103.973085)  can0  012   [8]  E8 03 10 00 00 00 00 00
 (1648943103.975072)  can0  1E5   [8]  1C FE CD 10 00 00 02 33
 (1648943103.975919)  can0  014   [5]  00 00 00 10 27
 (1648943103.983040)  can0  012   [8]  E8 03 10 00 00 00 00 00
 (1648943103.985081)  can0  1E5   [8]  1C FE CD 30 00 00 02 53
 (1648943103.985926)  can0  014   [5]  00 00 00 10 27
 (1648943103.993071)  can0  012   [8]  E8 03 10 00 00 00 00 00
 (1648943103.995078)  can0  1E5   [8]  1C FE CD 50 00 00 02 73
 (1648943103.995855)  can0  014   [5]  00 00 00 10 27
 (1648943104.003073)  can0  012   [8]  E8 03 10 00 00 00 00 00
 (1648943104.005138)  can0  1E5   [8]  1C FE CD 70 00 00 02 93
 (1648943104.005931)  can0  014   [5]  00 00 00 10 27
 (1648943104.013070)  can0  012   [8]  E8 03 10 00 00 00 00 00
 (1648943104.015054)  can0  1E5   [8]  1C FE CD 10 00 00 02 33
 (1648943104.015829)  can0  014   [5]  00 00 00 10 27
 (1648943104.023082)  can0  012   [8]  E8 03 10 00 00 00 00 00
 (1648943104.025078)  can0  1E5   [8]  1C FE CD 30 00 00 02 53
 (1648943104.025910)  can0  014   [5]  00 00 00 10 27
 (1648943104.033083)  can0  012   [8]  E8 03 10 00 00 00 00 00
 (1648943104.035069)  can0  1E5   [8]  1C FE CD 50 00 00 02 73
 (1648943104.035459)  can0  010   [4]  54 B9 1D 00
 (1648943104.035708)  can0  005   [8]  01 00 00 00 00 00 00 00
 (1648943104.035906)  can0  014   [5]  00 00 00 13 27
 (1648943104.043075)  can0  012   [8]  E8 03 10 00 00 00 00 00
 (1648943104.045087)  can0  1E5   [8]  1C FE CE 70 00 00 02 94
 (1648943104.045886)  can0  014   [5]  00 00 00 10 27
 (1648943104.053089)  can0  012   [8]  E8 03 10 00 00 00 00 00
 (1648943104.055165)  can0  1E5   [8]  1C FE CD 10 00 00 02 33
 (1648943104.055847)  can0  014   [5]  00 00 00 0D 27
 (1648943104.063085)  can0  012   [8]  E8 03 10 00 00 00 00 00
 (1648943104.065132)  can0  1E5   [8]  1C FE CD 30 00 00 02 53
 (1648943104.065936)  can0  014   [5]  00 00 00 10 27
 (1648943104.073087)  can0  012   [8]  E8 03 10 00 00 00 00 00
 (1648943104.075035)  can0  1E5   [8]  1C FE CE 50 00 00 02 74
 (1648943104.075885)  can0  014   [5]  00 00 00 10 27
 (1648943104.083097)  can0  012   [8]  E8 03 10 00 00 00 00 00
 (1648943104.085095)  can0  1E5   [8]  1C FE CD 70 00 00 02 93
 (1648943104.085814)  can0  014   [5]  00 00 00 10 27
 (1648943104.093089)  can0  012   [8]  E8 03 10 00 00 00 00 00
 (1648943104.095036)  can0  1E5   [8]  1C FE CD 10 00 00 02 33
 (1648943104.095881)  can0  014   [5]  00 00 00 10 27
 (1648943104.103081)  can0  012   [8]  E8 03 10 00 00 00 00 00
 (1648943104.105116)  can0  1E5   [8]  1C FE CD 30 00 00 02 53
 (1648943104.105900)  can0  014   [5]  00 00 00 10 27
 (1648943104.113036)  can0  012   [8]  E8 03 10 00 00 00 00 00
 (1648943104.115071)  can0  1E5   [8]  1C FE CE 50 00 00 02 74
 (1648943104.115831)  can0  014   [5]  00 00 00 10 27
 (1648943104.123089)  can0  012   [8]  E8 03 10 00 00 00 00 00
 (1648943104.125091)  can0  1E5   [8]  1C FE CD 70 00 00 02 93
 (1648943104.125930)  can0  014   [5]  00 00 00 10 27
 (1648943104.133141)  can0  012   [8]  E8 03 10 00 00 00 00 00
 (1648943104.135101)  can0  1E5   [8]  1C FE CD 10 00 00 02 33
 (1648943104.135455)  can0  010   [4]  54 B9 1D 00
 (1648943104.135713)  can0  005   [8]  01 00 00 00 00 00 00 00
 (1648943104.135908)  can0  014   [5]  00 00 00 13 27
 (1648943104.143084)  can0  012   [8]  E8 03 10 00 00 00 00 00
 (1648943104.143240)  can0  0E3   [2]  03 01
 (1648943104.145077)  can0  1E5   [8]  1C FE CD 30 00 00 02 53
 (1648943104.145935)  can0  014   [5]  00 00 00 14 27
 (1648943104.153083)  can0  012   [8]  E8 03 10 00 00 00 00 00
 (1648943104.155087)  can0  1E5   [8]  1C FE CD 50 00 00 02 73
 (1648943104.155939)  can0  014   [5]  00 00 00 09 27
 (1648943104.163093)  can0  012   [8]  E8 03 10 00 00 00 00 00
 (1648943104.165072)  can0  1E5   [8]  1C FE CD 70 00 00 02 93
 (1648943104.165918)  can0  014   [5]  00 00 00 10 27
 (1648943104.173091)  can0  012   [8]  E8 03 10 00 00 00 00 00
 (1648943104.175085)  can0  1E5   [8]  1C FE CD 10 00 00 02 33
 (1648943104.175891)  can0  014   [5]  00 00 00 10 27
 (1648943104.183100)  can0  012   [8]  E8 03 10 00 00 00 00 00
 (1648943104.185107)  can0  1E5   [8]  1C FE CD 30 00 00 02 53
 (1648943104.185939)  can0  014   [5]  00 00 00 10 27
 (1648943104.193095)  can0  012   [8]  E8 03 10 00 00 00 00 00
 (1648943104.195081)  can0  1E5   [8]  1C FE CD 50 00 00 02 73
 (1648943104.195935)  can0  014   [5]  00 00 00 10 27
 (1648943104.203099)  can0  012   [8]  E8 03 10 00 00 00 00 00
 (1648943104.205094)  can0  1E5   [8]  1C FE CD 70 00 00 02 93
 (1648943104.205943)  can0  014   [5]  00 00 00 10 27
 (1648943104.213047)  can0  012   [8]  E8 03 10 00 00 00 00 00
 (1648943104.215140)  can0  1E5   [8]  1C FE CD 10 00 00 02 33
 (1648943104.215933)  can0  014   [5]  00 00 00 10 27
 (1648943104.223098)  can0  012   [8]  E8 03 10 00 00 00 00 00
 (1648943104.225043)  can0  1E5   [8]  1C FE CD 30 00 00 02 53
 (1648943104.225890)  can0  014   [5]  00 00 00 10 27
 (1648943104.233109)  can0  012   [8]  E8 03 10 00 00 00 00 00
 (1648943104.235112)  can0  1E5   [8]  1C FE CD 50 00 00 02 73
 (1648943104.235478)  can0  010   [4]  54 B9 1D 00
 (1648943104.235725)  can0  005   [8]  01 00 00 00 00 00 00 00
 (1648943104.235987)  can0  014   [5]  00 00 00 13 27
 (1648943104.243086)  can0  012   [8]  E8 03 10 00 00 00 00 00
 (1648943104.245045)  can0  1E5   [8]  1C FE CD 70 00 00 02 93
 (1648943104.245893)  can0  014   [5]  00 00 00 10 27
 (1648943104.253451)  can0  012   [8]  E8 03 10 00 00 00 00 00
 (1648943104.255425)  can0  1E5   [8]  1C FE CD 10 00 00 02 33
 (1648943104.255876)  can0  014   [5]  00 00 00 0D 27
 (1648943104.263102)  can0  012   [8]  E8 03 10 00 00 00 00 00
 (1648943104.265088)  can0  1E5   [8]  1C FE CD 30 00 00 02 53
 (1648943104.265912)  can0  014   [5]  00 00 00 10 27
 (1648943104.273059)  can0  012   [8]  E8 03 10 00 00 00 00 00
 (1648943104.275103)  can0  1E5   [8]  1C FE CD 50 00 00 02 73
 (1648943104.275949)  can0  014   [5]  00 00 00 10 27
 (1648943104.283152)  can0  012   [8]  E8 03 10 00 00 00 00 00
 (1648943104.285095)  can0  1E5   [8]  1C FE CD 70 00 00 02 93
 (1648943104.285824)  can0  014   [5]  00 00 00 10 27
 (1648943104.293061)  can0  012   [8]  E8 03 10 00 00 00 00 00
 (1648943104.295097)  can0  1E5   [8]  1C FE CD 10 00 00 02 33
 (1648943104.295981)  can0  014   [5]  00 00 00 10 27
 (1648943104.303108)  can0  012   [8]  E8 03 10 00 00 00 00 00
 (1648943104.305022)  can0  1E5   [8]  1C FE CD 30 00 00 02 53
 (1648943104.305939)  can0  014   [5]  00 00 00 10 27
 (1648943104.313060)  can0  012   [8]  E8 03 10 00 00 00 00 00
 (1648943104.315077)  can0  1E5   [8]  1C FE CD 50 00 00 02 73
 (1648943104.315844)  can0  014   [5]  00 00 00 10 27
 (1648943104.323102)  can0  012   [8]  E8 03 10 00 00 00 00 00
 (1648943104.325069)  can0  1E5   [8]  1C FE CD 70 00 00 02 93
 (1648943104.325951)  can0  014   [5]  00 00 00 10 27
 (1648943104.333121)  can0  012   [8]  E8 03 10 00 00 00 00 00
 (1648943104.335114)  can0  1E5   [8]  1C FE CD 10 00 00 02 33
 (1648943104.335460)  can0  010   [4]  54 B9 1D 00
 (1648943104.335735)  can0  005   [8]  01 00 00 00 00 00 00 00
 (1648943104.335934)  can0  014   [5]  00 00 00 13 27
 (1648943104.336053)  can0  0E2   [2]  03 01
 (1648943104.336193)  can0  0E4   [2]  03 01
 (1648943104.343055)  can0  012   [8]  E8 03 10 00 00 00 00 00
 (1648943104.345106)  can0  1E5   [8]  1C FE CD 30 00 00 02 53
 (1648943104.345956)  can0  014   [5]  00 00 00 14 27
 (1648943104.353112)  can0  012   [8]  E8 03 10 00 00 00 00 00
 (1648943104.355094)  can0  1E5   [8]  1C FE CD 50 00 00 02 73
 (1648943104.355882)  can0  014   [5]  00 00 00 09 27
 (1648943104.363084)  can0  012   [8]  E8 03 10 00 00 00 00 00
 (1648943104.365106)  can0  1E5   [8]  1C FE CD 70 00 00 02 93
 (1648943104.365966)  can0  014   [5]  00 00 00 10 27
 (1648943104.373067)  can0  012   [8]  E8 03 10 00 00 00 00 00
 (1648943104.375096)  can0  1E5   [8]  1C FE CD 10 00 00 02 33
 (1648943104.375955)  can0  014   [5]  00 00 00 10 27
 (1648943104.383123)  can0  012   [8]  E8 03 10 00 00 00 00 00
 (1648943104.385120)  can0  1E5   [8]  1C FE CD 30 00 00 02 53
 (1648943104.385867)  can0  014   [5]  00 00 00 10 27
 (1648943104.393059)  can0  012   [8]  E8 03 10 00 00 00 00 00
 (1648943104.395104)  can0  1E5   [8]  1C FE CD 50 00 00 02 73
 (1648943104.395976)  can0  014   [5]  00 00 00 10 27
 (1648943104.403115)  can0  012   [8]  E8 03 10 00 00 00 00 00
 (1648943104.405137)  can0  1E5   [8]  1C FE CD 70 00 00 02 93
 (1648943104.405945)  can0  014   [5]  00 00 00 10 27
 (1648943104.413064)  can0  012   [8]  E8 03 10 00 00 00 00 00
 (1648943104.415101)  can0  1E5   [8]  1C FE CD 10 00 00 02 33
 (1648943104.415906)  can0  014   [5]  00 00 00 10 27
 (1648943104.423120)  can0  012   [8]  E8 03 10 00 00 00 00 00
 (1648943104.425053)  can0  1E5   [8]  1C FE CD 30 00 00 02 53
 (1648943104.425902)  can0  014   [5]  00 00 00 10 27
 (1648943104.433163)  can0  012   [8]  E8 03 10 00 00 00 00 00
 (1648943104.435100)  can0  1E5   [8]  1C FE CD 50 00 00 02 73
 (1648943104.435467)  can0  010   [4]  54 B9 1D 00
 (1648943104.435732)  can0  005   [8]  01 00 00 00 00 00 00 00
 (1648943104.435929)  can0  014   [5]  00 00 00 13 27
 (1648943104.443062)  can0  012   [8]  E8 03 10 00 00 00 00 00
 (1648943104.445083)  can0  1E5   [8]  1C FE CD 70 00 00 02 93
 (1648943104.445926)  can0  014   [5]  00 00 00 10 27
 (1648943104.453120)  can0  012   [8]  E8 03 10 00 00 00 00 00
 (1648943104.455112)  can0  1E5   [8]  1C FE CD 10 00 00 02 33
 (1648943104.455837)  can0  014   [5]  00 00 00 0D 27
 (1648943104.463100)  can0  012   [8]  E8 03 10 00 00 00 00 00
 (1648943104.465049)  can0  1E5   [8]  1C FE CD 30 00 00 02 53
 (1648943104.465925)  can0  014   [5]  00 00 00 10 27
 (1648943104.473068)  can0  012   [8]  E8 03 10 00 00 00 00 00
 (1648943104.475106)  can0  1E5   [8]  1C FE CD 50 00 00 02 73
 (1648943104.475960)  can0  014   [5]  00 00 00 10 27
 (1648943104.483098)  can0  012   [8]  E8 03 10 00 00 00 00 00
 (1648943104.485087)  can0  1E5   [8]  1C FE CD 70 00 00 02 93
 (1648943104.485870)  can0  014   [5]  00 00 00 10 27
 (1648943104.493064)  can0  012   [8]  E8 03 10 00 00 00 00 00
 (1648943104.495082)  can0  1E5   [8]  1C FE CD 10 00 00 02 33
 (1648943104.495911)  can0  014   [5]  00 00 00 10 27
 (1648943104.503120)  can0  012   [8]  E8 03 10 00 00 00 00 00
 (1648943104.505085)  can0  1E5   [8]  1C FE CD 30 00 00 02 53
 (1648943104.505845)  can0  014   [5]  00 00 00 10 27
 (1648943104.513103)  can0  012   [8]  E8 03 10 00 00 00 00 00
 (1648943104.515119)  can0  1E5   [8]  1C FE CD 50 00 00 02 73
 (1648943104.515947)  can0  014   [5]  00 00 00 10 27
 (1648943104.523121)  can0  012   [8]  E8 03 10 00 00 00 00 00
 (1648943104.525120)  can0  1E5   [8]  1C FE CD 70 00 00 02 93
 (1648943104.525967)  can0  014   [5]  00 00 00 10 27
 (1648943104.533102)  can0  012   [8]  E8 03 10 00 00 00 00 00
 (1648943104.535099)  can0  1E5   [8]  1C FE CD 10 00 00 02 33
 (1648943104.535467)  can0  010   [4]  54 B9 1D 00
 (1648943104.535740)  can0  005   [8]  01 00 00 00 00 00 00 00
 (1648943104.535937)  can0  014   [5]  00 00 00 13 27
 (1648943104.543111)  can0  012   [8]  E8 03 10 00 00 00 00 00
 (1648943104.545097)  can0  1E5   [8]  1C FE CD 30 00 00 02 53
 (1648943104.545978)  can0  014   [5]  00 00 00 10 27
 (1648943104.553122)  can0  012   [8]  E8 03 10 00 00 00 00 00
 (1648943104.555065)  can0  1E5   [8]  1C FE CE 50 00 00 02 74
 (1648943104.555885)  can0  014   [5]  00 00 00 0D 27
 (1648943104.563087)  can0  012   [8]  E8 03 10 00 00 00 00 00
 (1648943104.565059)  can0  1E5   [8]  1C FE CD 70 00 00 02 93
 (1648943104.565924)  can0  014   [5]  00 00 00 10 27
 (1648943104.573118)  can0  012   [8]  E8 03 10 00 00 00 00 00
 (1648943104.575087)  can0  1E5   [8]  1C FE CD 10 00 00 02 33
 (1648943104.575890)  can0  014   [5]  00 00 00 10 27
 (1648943104.583091)  can0  012   [8]  E8 03 10 00 00 00 00 00
 (1648943104.585135)  can0  1E5   [8]  1C FE CD 30 00 00 02 53
 (1648943104.585926)  can0  014   [5]  00 00 00 10 27
 (1648943104.593121)  can0  012   [8]  E8 03 10 00 00 00 00 00
 (1648943104.595071)  can0  1E5   [8]  1C FE CD 50 00 00 02 73
 (1648943104.595899)  can0  014   [5]  00 00 00 10 27
 (1648943104.603129)  can0  012   [8]  E8 03 10 00 00 00 00 00
 (1648943104.605193)  can0  1E5   [8]  1C FE CD 70 00 00 02 93
 (1648943104.605878)  can0  014   [5]  00 00 00 10 27
 (1648943104.613100)  can0  012   [8]  E8 03 10 00 00 00 00 00
 (1648943104.615132)  can0  1E5   [8]  1C FE CD 10 00 00 02 33
 (1648943104.615875)  can0  014   [5]  00 00 00 10 27
 (1648943104.623104)  can0  012   [8]  E8 03 10 00 00 00 00 00
 (1648943104.625094)  can0  1E5   [8]  1C FE CD 30 00 00 02 53
 (1648943104.625898)  can0  014   [5]  00 00 00 10 27
 (1648943104.633150)  can0  012   [8]  E8 03 10 00 00 00 00 00
 (1648943104.635155)  can0  1E5   [8]  1C FE CD 50 00 00 02 73
 (1648943104.635482)  can0  010   [4]  54 B9 1D 00
 (1648943104.635746)  can0  005   [8]  01 00 00 00 00 00 00 00
 (1648943104.635960)  can0  014   [5]  00 00 00 13 27
 (1648943104.643112)  can0  012   [8]  E8 03 10 00 00 00 00 00
 (1648943104.645093)  can0  1E5   [8]  1C FE CD 70 00 00 02 93
 (1648943104.645845)  can0  014   [5]  00 00 00 10 27
 (1648943104.653127)  can0  012   [8]  E8 03 10 00 00 00 00 00
 (1648943104.655094)  can0  1E5   [8]  1C FE CD 10 00 00 02 33
 (1648943104.655899)  can0  014   [5]  00 00 00 0D 27
 (1648943104.663093)  can0  012   [8]  E8 03 10 00 00 00 00 00
 (1648943104.665127)  can0  1E5   [8]  1C FE CD 30 00 00 02 53
 (1648943104.665876)  can0  014   [5]  00 00 00 10 27
 (1648943104.673056)  can0  012   [8]  E8 03 10 00 00 00 00 00
 (1648943104.675107)  can0  1E5   [8]  1C FE CD 50 00 00 02 73
 (1648943104.675874)  can0  014   [5]  00 00 00 10 27
 (1648943104.683115)  can0  012   [8]  E8 03 10 00 00 00 00 00
 (1648943104.685112)  can0  1E5   [8]  1C FE CD 70 00 00 02 93
 (1648943104.685850)  can0  014   [5]  00 00 00 10 27
 (1648943104.693090)  can0  012   [8]  E8 03 10 00 00 00 00 00
 (1648943104.695088)  can0  1E5   [8]  1C FE CD 10 00 00 02 33
 (1648943104.695899)  can0  014   [5]  00 00 00 10 27
 (1648943104.703134)  can0  012   [8]  E8 03 10 00 00 00 00 00
 (1648943104.705089)  can0  1E5   [8]  1C FE CD 30 00 00 02 53
 (1648943104.705927)  can0  014   [5]  00 00 00 10 27
 (1648943104.713108)  can0  012   [8]  E8 03 10 00 00 00 00 00
 (1648943104.715083)  can0  1E5   [8]  1C FE CD 50 00 00 02 73
 (1648943104.715928)  can0  014   [5]  00 00 00 10 27
 (1648943104.723128)  can0  012   [8]  E8 03 10 00 00 00 00 00
 (1648943104.725099)  can0  1E5   [8]  1C FE CD 70 00 00 02 93
 (1648943104.725859)  can0  014   [5]  00 00 00 10 27
 (1648943104.733094)  can0  012   [8]  E8 03 10 00 00 00 00 00
 (1648943104.735107)  can0  1E5   [8]  1C FE CD 10 00 00 02 33
 (1648943104.735482)  can0  010   [4]  54 B9 1D 00
 (1648943104.735752)  can0  005   [8]  01 00 00 00 00 00 00 00
 (1648943104.735950)  can0  014   [5]  00 00 00 13 27
 (1648943104.743121)  can0  012   [8]  E8 03 10 00 00 00 00 00
 (1648943104.745101)  can0  1E5   [8]  1C FE CD 30 00 00 02 53
 (1648943104.746072)  can0  014   [5]  00 00 00 10 27
 (1648943104.753113)  can0  012   [8]  E8 03 10 00 00 00 00 00
 (1648943104.755066)  can0  1E5   [8]  1C FE CD 50 00 00 02 73
 (1648943104.755896)  can0  014   [5]  00 00 00 0D 27
 (1648943104.763092)  can0  012   [8]  E8 03 10 00 00 00 00 00
 (1648943104.765080)  can0  1E5   [8]  1C FE CD 70 00 00 02 93
 (1648943104.765879)  can0  014   [5]  00 00 00 10 27
 (1648943104.773107)  can0  012   [8]  E8 03 10 00 00 00 00 00
 (1648943104.775101)  can0  1E5   [8]  1C FE CD 10 00 00 02 33
 (1648943104.775863)  can0  014   [5]  00 00 00 10 27
 (1648943104.783109)  can0  012   [8]  E8 03 10 00 00 00 00 00
 (1648943104.785121)  can0  1E5   [8]  1C FE CD 30 00 00 02 53
 (1648943104.785866)  can0  014   [5]  00 00 00 10 27
 (1648943104.793100)  can0  012   [8]  E8 03 10 00 00 00 00 00
 (1648943104.795114)  can0  1E5   [8]  1C FE CD 50 00 00 02 73
 (1648943104.795867)  can0  014   [5]  00 00 00 10 27
 (1648943104.803112)  can0  012   [8]  E8 03 10 00 00 00 00 00
 (1648943104.805105)  can0  1E5   [8]  1C FE CD 70 00 00 02 93
 (1648943104.805867)  can0  014   [5]  00 00 00 10 27
 (1648943104.813122)  can0  012   [8]  E8 03 10 00 00 00 00 00
 (1648943104.815076)  can0  1E5   [8]  1C FE CD 10 00 00 02 33
 (1648943104.815864)  can0  014   [5]  00 00 00 10 27
 (1648943104.823116)  can0  012   [8]  E8 03 10 00 00 00 00 00
 (1648943104.825104)  can0  1E5   [8]  1C FE CD 30 00 00 02 53
 (1648943104.825860)  can0  014   [5]  00 00 00 10 27
 (1648943104.833108)  can0  012   [8]  E8 03 10 00 00 00 00 00
 (1648943104.835099)  can0  1E5   [8]  1C FE CD 50 00 00 02 73
 (1648943104.835542)  can0  010   [4]  54 B9 1D 00
 (1648943104.835765)  can0  005   [8]  01 00 00 00 00 00 00 00
 (1648943104.835959)  can0  014   [5]  00 00 00 13 27
 (1648943104.843126)  can0  012   [8]  E8 03 10 00 00 00 00 00
 (1648943104.845100)  can0  1E5   [8]  1C FE CD 70 00 00 02 93
 (1648943104.845985)  can0  014   [5]  00 00 00 10 27
 (1648943104.853139)  can0  012   [8]  E8 03 10 00 00 00 00 00
 (1648943104.855118)  can0  1E5   [8]  1C FE CD 10 00 00 02 33
 (1648943104.855914)  can0  014   [5]  00 00 00 0D 27
 (1648943104.863062)  can0  012   [8]  E8 03 10 00 00 00 00 00
 (1648943104.865084)  can0  1E5   [8]  1C FE CD 30 00 00 02 53
 (1648943104.865872)  can0  014   [5]  00 00 00 10 27
 (1648943104.873114)  can0  012   [8]  E8 03 10 00 00 00 00 00
 (1648943104.875115)  can0  1E5   [8]  1C FE CD 50 00 00 02 73
 (1648943104.875860)  can0  014   [5]  00 00 00 10 27
 (1648943104.883154)  can0  012   [8]  E8 03 10 00 00 00 00 00
 (1648943104.885125)  can0  1E5   [8]  1C FE CD 70 00 00 02 93
 (1648943104.885905)  can0  014   [5]  00 00 00 10 27
 (1648943104.893118)  can0  012   [8]  E8 03 10 00 00 00 00 00
 (1648943104.895085)  can0  1E5   [8]  1C FE CD 10 00 00 02 33
 (1648943104.895905)  can0  014   [5]  00 00 00 10 27
 (1648943104.903143)  can0  012   [8]  E8 03 10 00 00 00 00 00
 (1648943104.905101)  can0  1E5   [8]  1C FE CD 30 00 00 02 53
 (1648943104.905908)  can0  014   [5]  00 00 00 10 27
 (1648943104.913066)  can0  012   [8]  E8 03 10 00 00 00 00 00
 (1648943104.915081)  can0  1E5   [8]  1C FE CD 50 00 00 02 73
 (1648943104.915873)  can0  014   [5]  00 00 00 10 27
 (1648943104.923115)  can0  012   [8]  E8 03 10 00 00 00 00 00
 (1648943104.925084)  can0  1E5   [8]  1C FE CD 70 00 00 02 93
 (1648943104.925912)  can0  014   [5]  00 00 00 10 27
 (1648943104.933127)  can0  012   [8]  E8 03 10 00 00 00 00 00
 (1648943104.935123)  can0  1E5   [8]  1C FE CD 10 00 00 02 33
 (1648943104.935580)  can0  010   [4]  54 B9 1D 00
 (1648943104.935772)  can0  005   [8]  01 00 00 00 00 00 00 00
 (1648943104.935963)  can0  014   [5]  00 00 00 13 27
 (1648943104.943143)  can0  012   [8]  E8 03 10 00 00 00 00 00
 (1648943104.945073)  can0  1E5   [8]  1C FE CD 30 00 00 02 53
 (1648943104.945869)  can0  014   [5]  00 00 00 10 27
 (1648943104.953121)  can0  012   [8]  E8 03 10 00 00 00 00 00
 (1648943104.955128)  can0  1E5   [8]  1C FE CD 50 00 00 02 73
 (1648943104.955914)  can0  014   [5]  00 00 00 0D 27
 (1648943104.963073)  can0  012   [8]  E8 03 10 00 00 00 00 00
 (1648943104.965083)  can0  1E5   [8]  1C FE CD 70 00 00 02 93
 (1648943104.965894)  can0  014   [5]  00 00 00 10 27
 (1648943104.973086)  can0  012   [8]  E8 03 10 00 00 00 00 00
 (1648943104.975091)  can0  1E5   [8]  1C FE CD 10 00 00 02 33
 (1648943104.975902)  can0  014   [5]  00 00 00 10 27
 (1648943104.983136)  can0  012   [8]  E8 03 10 00 00 00 00 00
 (1648943104.985130)  can0  1E5   [8]  1C FE CD 30 00 00 02 53
 (1648943104.985878)  can0  014   [5]  00 00 00 10 27
 (1648943104.993121)  can0  012   [8]  E8 03 10 00 00 00 00 00
 (1648943104.995115)  can0  1E5   [8]  1C FE CD 50 00 00 02 73
 (1648943104.995925)  can0  014   [5]  00 00 00 10 27
 (1648943105.003130)  can0  012   [8]  E8 03 10 00 00 00 00 00
 (1648943105.005097)  can0  1E5   [8]  1C FE CD 70 00 00 02 93
 (1648943105.005897)  can0  014   [5]  00 00 00 10 27
 (1648943105.013111)  can0  012   [8]  E8 03 10 00 00 00 00 00
 (1648943105.015075)  can0  1E5   [8]  1C FE CD 10 00 00 02 33
 (1648943105.015877)  can0  014   [5]  00 00 00 10 27
 (1648943105.023129)  can0  012   [8]  E8 03 10 00 00 00 00 00
 (1648943105.025115)  can0  1E5   [8]  1C FE CD 30 00 00 02 53
 (1648943105.025923)  can0  014   [5]  00 00 00 10 27
 (1648943105.033123)  can0  012   [8]  E8 03 10 00 00 00 00 00
 (1648943105.035100)  can0  1E5   [8]  1C FE CD 50 00 00 02 73
 (1648943105.035478)  can0  010   [4]  54 B9 1D 00
 (1648943105.035748)  can0  005   [8]  01 00 00 00 00 00 00 00
 (1648943105.035950)  can0  014   [5]  00 00 00 13 27
 (1648943105.043155)  can0  012   [8]  E8 03 10 00 00 00 00 00
 (1648943105.045092)  can0  1E5   [8]  1C FE CD 70 00 00 02 93
 (1648943105.045949)  can0  014   [5]  00 00 00 10 27
 (1648943105.053130)  can0  012   [8]  E8 03 10 00 00 00 00 00
 (1648943105.055095)  can0  1E5   [8]  1C FE CD 10 00 00 02 33
 (1648943105.055880)  can0  014   [5]  00 00 00 0D 27
 (1648943105.063097)  can0  012   [8]  E8 03 10 00 00 00 00 00
 (1648943105.065103)  can0  1E5   [8]  1C FE CE 30 00 00 02 54
 (1648943105.065882)  can0  014   [5]  00 00 00 10 27
 (1648943105.073127)  can0  012   [8]  E8 03 10 00 00 00 00 00
 (1648943105.075102)  can0  1E5   [8]  1C FE CD 50 00 00 02 73
 (1648943105.075877)  can0  014   [5]  00 00 00 10 27
 (1648943105.083127)  can0  012   [8]  E8 03 10 00 00 00 00 00
 (1648943105.085087)  can0  1E5   [8]  1C FE CD 70 00 00 02 93
 (1648943105.085890)  can0  014   [5]  00 00 00 10 27
 (1648943105.093119)  can0  012   [8]  E8 03 10 00 00 00 00 00
 (1648943105.095104)  can0  1E5   [8]  1C FE CD 10 00 00 02 33
 (1648943105.095879)  can0  014   [5]  00 00 00 10 27
 (1648943105.103165)  can0  012   [8]  E8 03 10 00 00 00 00 00
 (1648943105.105074)  can0  1E5   [8]  1C FE CD 30 00 00 02 53
 (1648943105.105905)  can0  014   [5]  00 00 00 10 27
 (1648943105.113127)  can0  012   [8]  E8 03 10 00 00 00 00 00
 (1648943105.115075)  can0  1E5   [8]  1C FE CD 50 00 00 02 73
 (1648943105.115891)  can0  014   [5]  00 00 00 10 27
 (1648943105.123136)  can0  012   [8]  E8 03 10 00 00 00 00 00
 (1648943105.125097)  can0  1E5   [8]  1C FE CD 70 00 00 02 93
 (1648943105.125929)  can0  014   [5]  00 00 00 10 27
 (1648943105.133082)  can0  012   [8]  E8 03 10 00 00 00 00 00
 (1648943105.135116)  can0  1E5   [8]  1C FE CD 10 00 00 02 33
 (1648943105.135522)  can0  010   [4]  54 B9 1D 00
 (1648943105.135771)  can0  005   [8]  01 00 00 00 00 00 00 00
 (1648943105.135953)  can0  014   [5]  00 00 00 13 27
 (1648943105.143140)  can0  012   [8]  E8 03 10 00 00 00 00 00
 (1648943105.143297)  can0  0E3   [2]  2B 01
 (1648943105.145106)  can0  1E5   [8]  1C FE CD 30 00 00 02 53
 (1648943105.146300)  can0  014   [5]  00 00 00 14 27
 (1648943105.153136)  can0  012   [8]  E8 03 10 00 00 00 00 00
 (1648943105.155124)  can0  1E5   [8]  1C FE CD 50 00 00 02 73
 (1648943105.155926)  can0  014   [5]  00 00 00 09 27
