 (1648942738.628833)  can0  012   [8]  E8 03 10 00 00 00 00 00
 (1648942738.630105)  can0  1E5   [8]  1C FF E0 70 00 00 02 A7
 (1648942738.631726)  can0  014   [5]  00 00 00 10 27
 (1648942738.638831)  can0  012   [8]  E8 03 10 00 00 00 00 00
 (1648942738.640098)  can0  1E5   [8]  1C FF E0 10 00 00 02 47
 (1648942738.641726)  can0  014   [5]  00 00 00 0C 27
 (1648942738.648843)  can0  012   [8]  E8 03 10 00 00 00 00 00
 (1648942738.650084)  can0  1E5   [8]  1C FF E0 30 00 00 02 67
 (1648942738.651739)  can0  014   [5]  00 00 00 10 27
 (1648942738.658836)  can0  012   [8]  E8 03 10 00 00 00 00 00
 (1648942738.660094)  can0  1E5   [8]  1C FF E0 50 00 00 02 87
 (1648942738.661740)  can0  014   [5]  00 00 00 10 27
 (1648942738.668838)  can0  012   [8]  E8 03 10 00 00 00 00 00
 (1648942738.670110)  can0  1E5   [8]  1C FF E0 70 00 00 02 A7
 (1648942738.671738)  can0  014   [5]  00 00 00 10 27
 (1648942738.678840)  can0  012   [8]  E8 03 10 00 00 00 00 00
 (1648942738.680122)  can0  1E5   [8]  1C FF E0 10 00 00 02 47
 (1648942738.681740)  can0  014   [5]  00 00 00 10 27
 (1648942738.688842)  can0  012   [8]  E8 03 10 00 00 00 00 00
 (1648942738.690083)  can0  1E5   [8]  1C FF E0 30 00 00 02 67
 (1648942738.691732)  can0  014   [5]  00 00 00 10 27
 (1648942738.698836)  can0  012   [8]  E8 03 10 00 00 00 00 00
 (1648942738.700114)  can0  1E5   [8]  1C FF E0 50 00 00 02 87
 (1648942738.701739)  can0  014   [5]  00 00 00 10 27
 (1648942738.708839)  can0  012   [8]  E8 03 10 00 00 00 00 00
 (1648942738.710117)  can0  1E5   [8]  1C FF E0 70 00 00 02 A7
 (1648942738.711740)  can0  014   [5]  00 00 00 10 27
 (1648942738.718842)  can0  012   [8]  E8 03 10 00 00 00 00 00
 (1648942738.720110)  can0  1E5   [8]  1C FF E0 10 00 00 02 47
 (1648942738.721335)  can0  010   [4]  26 73 00 00
 (1648942738.721581)  can0  005   [8]  01 00 00 00 00 00 00 00
 (1648942738.721780)  can0  014   [5]  00 00 00 14 27
 (1648942738.728841)  can0  012   [8]  E8 03 10 00 00 00 00 00
 (1648942738.730116)  can0  1E5   [8]  1C FF E0 30 00 00 02 67
 (1648942738.731743)  can0  014   [5]  00 00 00 10 27
 (1648942738.738839)  can0  012   [8]  E8 03 10 00 00 00 00 00
 (1648942738.740112)  can0  1E5   [8]  1C FF E0 50 00 00 02 87
 (1648942738.741734)  can0  014   [5]  00 00 00 0C 27
 (1648942738.748849)  can0  012   [8]  E8 03 10 00 00 00 00 00
 (1648942738.750093)  can0  1E5   [8]  1C FF E0 70 00 00 02 A7
 (1648942738.751738)  can0  014   [5]  00 00 00 10 27
 (1648942738.758839)  can0  012   [8]  E8 03 10 00 00 00 00 00
 (1648942738.760109)  can0  1E5   [8]  1C FF E0 10 00 00 02 47
 (1648942738.761745)  can0  014   [5]  00 00 00 10 27
 (1648942738.768838)  can0  012   [8]  E8 03 10 00 00 00 00 00
 (1648942738.770087)  can0  1E5   [8]  1C FF E0 30 00 00 02 67
 (1648942738.771737)  can0  014   [5]  00 00 00 10 27
 (1648942738.778840)  can0  012   [8]  E8 03 10 00 00 00 00 00
 (1648942738.780090)  can0  1E5   [8]  1C FF E0 50 00 00 02 87
 (1648942738.781745)  can0  014   [5]  00 00 00 10 27
 (1648942738.788841)  can0  012   [8]  E8 03 10 00 00 00 00 00
 (1648942738.790092)  can0  1E5   [8]  1C FF E0 70 00 00 02 A7
 (1648942738.791739)  can0  014   [5]  00 00 00 10 27
 (1648942738.798845)  can0  012   [8]  E8 03 10 00 00 00 00 00
 (1648942738.800095)  can0  1E5   [8]  1C FF E0 10 00 00 02 47
 (1648942738.801739)  can0  014   [5]  00 00 00 10 27
 (1648942738.808842)  can0  012   [8]  E8 03 10 00 00 00 00 00
 (1648942738.810115)  can0  1E5   [8]  1C FF E0 30 00 00 02 67
 (1648942738.811742)  can0  014   [5]  00 00 00 10 27
 (1648942738.818843)  can0  012   [8]  E8 03 10 00 00 00 00 00
 (1648942738.820091)  can0  1E5   [8]  1C FF E0 50 00 00 02 87
 (1648942738.821340)  can0  010   [4]  26 73 00 00
 (1648942738.821660)  can0  005   [8]  01 00 00 00 00 00 00 00
 (1648942738.821785)  can0  014   [5]  00 00 00 14 27
 (1648942738.828846)  can0  012   [8]  E8 03 10 00 00 00 00 00
 (1648942738.830096)  can0  1E5   [8]  1C FF E0 70 00 00 02 A7
 (1648942738.831749)  can0  014   [5]  00 00 00 10 27
 (1648942738.838846)  can0  012   [8]  E8 03 10 00 00 00 00 00
 (1648942738.840102)  can0  1E5   [8]  1C FF E0 10 00 00 02 47
 (1648942738.841739)  can0  014   [5]  00 00 00 0C 27
 (1648942738.848849)  can0  012   [8]  E8 03 10 00 00 00 00 00
 (1648942738.850096)  can0  1E5   [8]  1C FF E0 30 00 00 02 67
 (1648942738.851744)  can0  014   [5]  00 00 00 10 27
 (1648942738.858846)  can0  012   [8]  E8 03 10 00 00 00 00 00
 (1648942738.860095)  can0  1E5   [8]  1C FF E0 50 00 00 02 87
 (1648942738.861747)  can0  014   [5]  00 00 00 10 27
 (1648942738.868848)  can0  012   [8]  E8 03 10 00 00 00 00 00
 (1648942738.870095)  can0  1E5   [8]  1C FF E0 70 00 00 02 A7
 (1648942738.871751)  can0  014   [5]  00 00 00 10 27
 (1648942738.878848)  can0  012   [8]  E8 03 10 00 00 00 00 00
 (1648942738.880098)  can0  1E5   [8]  1C FF E0 10 00 00 02 47
 (1648942738.881752)  can0  014   [5]  00 00 00 10 27
 (1648942738.888847)  can0  012   [8]  E8 03 10 00 00 00 00 00
 (1648942738.890092)  can0  1E5   [8]  1C FF E0 30 00 00 02 67
 (1648942738.891745)  can0  014   [5]  00 00 00 10 27
 (1648942738.898850)  can0  012   [8]  E8 03 10 00 00 00 00 00
 (1648942738.900099)  can0  1E5   [8]  1C FF E0 50 00 00 02 87
 (1648942738.901747)  can0  014   [5]  00 00 00 10 27
 (1648942738.908839)  can0  012   [8]  E8 03 10 00 00 00 00 00
 (1648942738.910085)  can0  1E5   [8]  1C FF E0 70 00 00 02 A7
 (1648942738.911740)  can0  014   [5]  00 00 00 10 27
 (1648942738.918841)  can0  012   [8]  E8 03 10 00 00 00 00 00
 (1648942738.920088)  can0  1E5   [8]  1C FF E0 10 00 00 02 47
 (1648942738.921337)  can0  010   [4]  26 73 00 00
 (1648942738.921608)  can0  005   [8]  01 00 00 00 00 00 00 00
 (1648942738.921784)  can0  014   [5]  00 00 00 14 27
 (1648942738.928847)  can0  012   [8]  E8 03 10 00 00 00 00 00
 (1648942738.928991)  can0  0E3   [2]  2B 02
 (1648942738.930095)  can0  1E5   [8]  1C FF E0 30 00 00 02 67
 (1648942738.931744)  can0  014   [5]  00 00 00 13 27
 (1648942738.938845)  can0  012   [8]  E8 03 10 00 00 00 00 00
 (1648942738.940089)  can0  1E5   [8]  1C FF E0 50 00 00 02 87
 (1648942738.941739)  can0  014   [5]  00 00 00 09 27
 (1648942738.948851)  can0  012   [8]  E8 03 10 00 00 00 00 00
 (1648942738.950098)  can0  1E5   [8]  1C FF E0 70 00 00 02 A7
 (1648942738.951743)  can0  014   [5]  00 00 00 10 27
 (1648942738.958844)  can0  012   [8]  E8 03 10 00 00 00 00 00
 (1648942738.960094)  can0  1E5   [8]  1C FF E0 10 00 00 02 47
 (1648942738.961745)  can0  014   [5]  00 00 00 10 27
 (1648942738.968847)  can0  012   [8]  E8 03 10 00 00 00 00 00
 (1648942738.970092)  can0  1E5   [8]  1C FF E0 30 00 00 02 67
 (1648942738.971742)  can0  014   [5]  00 00 00 10 27
 (1648942738.978857)  can0  012   [8]  E8 03 10 00 00 00 00 00
 (1648942738.980107)  can0  1E5   [8]  1C FF E0 50 00 00 02 87
 (1648942738.981762)  can0  014   [5]  00 00 00 10 27
 (1648942738.988857)  can0  012   [8]  E8 03 10 00 00 00 00 00
 (1648942738.990102)  can0  1E5   [8]  1C FF E0 70 00 00 02 A7
 (1648942738.991753)  can0  014   [5]  00 00 00 10 27
 (1648942738.998863)  can0  012   [8]  E8 03 10 00 00 00 00 00
 (1648942739.000109)  can0  1E5   [8]  1C FF E0 10 00 00 02 47
 (1648942739.001751)  can0  014   [5]  00 00 00 10 27
 (1648942739.008855)  can0  012   [8]  E8 03 10 00 00 00 00 00
 (1648942739.010162)  can0  1E5   [8]  1C FF E0 30 00 00 02 67
 (1648942739.011797)  can0  014   [5]  00 00 00 10 27
 (1648942739.018864)  can0  012   [8]  E8 03 10 00 00 00 00 00
 (1648942739.020100)  can0  1E5   [8]  1C FF E0 50 00 00 02 87
 (1648942739.021347)  can0  010   [4]  26 73 00 00
 (1648942739.021673)  can0  005   [8]  01 00 00 00 00 00 00 00
 (1648942739.021793)  can0  014   [5]  00 00 00 14 27
 (1648942739.028857)  can0  012   [8]  E8 03 10 00 00 00 00 00
 (1648942739.030186)  can0  1E5   [8]  1C FF E0 70 00 00 02 A7
 (1648942739.031873)  can0  014   [5]  00 00 00 10 27
 (1648942739.038909)  can0  012   [8]  E8 03 10 00 00 00 00 00
 (1648942739.040152)  can0  1E5   [8]  1C FF E0 10 00 00 02 47
 (1648942739.041750)  can0  014   [5]  00 00 00 0C 27
 (1648942739.048964)  can0  012   [8]  E8 03 10 00 00 00 00 00
 (1648942739.050192)  can0  1E5   [8]  1C FF E0 30 00 00 02 67
 (1648942739.051757)  can0  014   [5]  00 00 00 10 27
 (1648942739.058902)  can0  012   [8]  E8 03 10 00 00 00 00 00
 (1648942739.060116)  can0  1E5   [8]  1C FF E0 50 00 00 02 87
 (1648942739.061758)  can0  014   [5]  00 00 00 10 27
 (1648942739.068874)  can0  012   [8]  E8 03 10 00 00 00 00 00
 (1648942739.070169)  can0  1E5   [8]  1C FF E0 70 00 00 02 A7
 (1648942739.071813)  can0  014   [5]  00 00 00 10 27
 (1648942739.078930)  can0  012   [8]  E8 03 10 00 00 00 00 00
 (1648942739.080125)  can0  1E5   [8]  1C FF E0 10 00 00 02 47
 (1648942739.081775)  can0  014   [5]  00 00 00 10 27
 (1648942739.088896)  can0  012   [8]  E8 03 10 00 00 00 00 00
 (1648942739.090109)  can0  1E5   [8]  1C FF E0 30 00 00 02 67
 (1648942739.091816)  can0  014   [5]  00 00 00 10 27
 (1648942739.098881)  can0  012   [8]  E8 03 10 00 00 00 00 00
 (1648942739.100116)  can0  1E5   [8]  1C FF E0 50 00 00 02 87
 (1648942739.101844)  can0  014   [5]  00 00 00 10 27
 (1648942739.108918)  can0  012   [8]  E8 03 10 00 00 00 00 00
 (1648942739.110177)  can0  1E5   [8]  1C FF E0 70 00 00 02 A7
 (1648942739.111787)  can0  014   [5]  00 00 00 10 27
 (1648942739.118922)  can0  012   [8]  E8 03 10 00 00 00 00 00
 (1648942739.120121)  can0  1E5   [8]  1C FF E0 10 00 00 02 47
 (1648942739.121339)  can0  010   [4]  26 73 00 00
 (1648942739.121617)  can0  005   [8]  01 00 00 00 00 00 00 00
 (1648942739.121810)  can0  014   [5]  00 00 00 14 27
 (1648942739.121940)  can0  0E2   [2]  2B 02
 (1648942739.122089)  can0  0E4   [2]  2B 02
 (1648942739.128878)  can0  012   [8]  E8 03 10 00 00 00 00 00
 (1648942739.130124)  can0  1E5   [8]  1C FF E0 30 00 00 02 67
 (1648942739.131777)  can0  014   [5]  00 00 00 13 27
 (1648942739.138881)  can0  012   [8]  E8 03 10 00 00 00 00 00
 (1648942739.140225)  can0  1E5   [8]  1C FF E0 50 00 00 02 87
 (1648942739.141811)  can0  014   [5]  00 00 00 09 27
 (1648942739.148931)  can0  012   [8]  E8 03 10 00 00 00 00 00
 (1648942739.150171)  can0  1E5   [8]  1C FF E0 70 00 00 02 A7
 (1648942739.151809)  can0  014   [5]  00 00 00 10 27
 (1648942739.158893)  can0  012   [8]  E8 03 10 00 00 00 00 00
 (1648942739.160127)  can0  1E5   [8]  1C FF E0 10 00 00 02 47
 (1648942739.161770)  can0  014   [5]  00 00 00 10 27
 (1648942739.168886)  can0  012   [8]  E8 03 10 00 00 00 00 00
 (1648942739.170129)  can0  1E5   [8]  1C FF E0 30 00 00 02 67
 (1648942739.171777)  can0  014   [5]  00 00 00 10 27
 (1648942739.178889)  can0  012   [8]  E8 03 10 00 00 00 00 00
 (1648942739.180147)  can0  1E5   [8]  1C FF E0 50 00 00 02 87
 (1648942739.181758)  can0  014   [5]  00 00 00 10 27
 (1648942739.188930)  can0  012   [8]  E8 03 10 00 00 00 00 00
 (1648942739.190181)  can0  1E5   [8]  1C FF E0 70 00 00 02 A7
 (1648942739.191821)  can0  014   [5]  00 00 00 10 27
 (1648942739.198923)  can0  012   [8]  E8 03 10 00 00 00 00 00
 (1648942739.200175)  can0  1E5   [8]  1C FF E0 10 00 00 02 47
 (1648942739.201827)  can0  014   [5]  00 00 00 10 27
 (1648942739.208915)  can0  012   [8]  E8 03 10 00 00 00 00 00
 (1648942739.210211)  can0  1E5   [8]  1C FF E0 30 00 00 02 67
 (1648942739.211745)  can0  014   [5]  00 00 00 10 27
 (1648942739.218955)  can0  012   [8]  E8 03 10 00 00 00 00 00
 (1648942739.220175)  can0  1E5   [8]  1C FF E0 50 00 00 02 87
 (1648942739.221422)  can0  010   [4]  26 73 00 00
 (1648942739.221620)  can0  005   [8]  01 00 00 00 00 00 00 00
 (1648942739.221819)  can0  014   [5]  00 00 00 14 27
 (1648942739.228887)  can0  012   [8]  E8 03 10 00 00 00 00 00
 (1648942739.230130)  can0  1E5   [8]  1C FF E0 70 00 00 02 A7
 (1648942739.231829)  can0  014   [5]  00 00 00 10 27
 (1648942739.238899)  can0  012   [8]  E8 03 10 00 00 00 00 00
 (1648942739.240170)  can0  1E5   [8]  1C FF E0 10 00 00 02 47
 (1648942739.241822)  can0  014   [5]  00 00 00 0C 27
 (1648942739.248941)  can0  012   [8]  E8 03 10 00 00 00 00 00
 (1648942739.250165)  can0  1E5   [8]  1C FF E0 30 00 00 02 67
 (1648942739.251859)  can0  014   [5]  00 00 00 10 27
 (1648942739.258936)  can0  012   [8]  E8 03 10 00 00 00 00 00
 (1648942739.260180)  can0  1E5   [8]  1C FF E0 50 00 00 02 87
 (1648942739.261781)  can0  014   [5]  00 00 00 10 27
 (1648942739.268895)  can0  012   [8]  E8 03 10 00 00 00 00 00
 (1648942739.270104)  can0  1E5   [8]  1C FF E0 70 00 00 02 A7
 (1648942739.271833)  can0  014   [5]  00 00 00 10 27
 (1648942739.278938)  can0  012   [8]  E8 03 10 00 00 00 00 00
 (1648942739.280112)  can0  1E5   [8]  1C FF E0 10 00 00 02 47
 (1648942739.281825)  can0  014   [5]  00 00 00 10 27
 (1648942739.288927)  can0  012   [8]  E8 03 10 00 00 00 00 00
 (1648942739.290192)  can0  1E5   [8]  1C FF E0 30 00 00 02 67
 (1648942739.291865)  can0  014   [5]  00 00 00 10 27
 (1648942739.298938)  can0  012   [8]  E8 03 10 00 00 00 00 00
 (1648942739.300175)  can0  1E5   [8]  1C FF E0 50 00 00 02 87
 (1648942739.301790)  can0  014   [5]  00 00 00 10 27
 (1648942739.308920)  can0  012   [8]  E8 03 10 00 00 00 00 00
 (1648942739.310131)  can0  1E5   [8]  1C FF E0 70 00 00 02 A7
 (1648942739.311779)  can0  014   [5]  00 00 00 10 27
 (1648942739.319000)  can0  012   [8]  E8 03 10 00 00 00 00 00
 (1648942739.320114)  can0  1E5   [8]  1C FF E0 10 00 00 02 47
 (1648942739.321423)  can0  010   [4]  26 73 00 00
 (1648942739.321708)  can0  005   [8]  01 00 00 00 00 00 00 00
 (1648942739.321825)  can0  014   [5]  00 00 00 14 27
 (1648942739.328898)  can0  012   [8]  E8 03 10 00 00 00 00 00
 (1648942739.330130)  can0  1E5   [8]  1C FF E0 30 00 00 02 67
 (1648942739.331832)  can0  014   [5]  00 00 00 10 27
 (1648942739.338913)  can0  012   [8]  E8 03 10 00 00 00 00 00
 (1648942739.340151)  can0  1E5   [8]  1C FF E0 50 00 00 02 87
 (1648942739.341779)  can0  014   [5]  00 00 00 0C 27
 (1648942739.348895)  can0  012   [8]  E8 03 10 00 00 00 00 00
 (1648942739.350161)  can0  1E5   [8]  1C FF E0 70 00 00 02 A7
 (1648942739.351791)  can0  014   [5]  00 00 00 10 27
 (1648942739.358923)  can0  012   [8]  E8 03 10 00 00 00 00 00
 (1648942739.360154)  can0  1E5   [8]  1C FF E0 10 00 00 02 47
 (1648942739.361760)  can0  014   [5]  00 00 00 10 27
 (1648942739.368988)  can0  012   [8]  E8 03 10 00 00 00 00 00
 (1648942739.370185)  can0  1E5   [8]  1C FF E0 30 00 00 02 67
 (1648942739.371831)  can0  014   [5]  00 00 00 10 27
 (1648942739.378914)  can0  012   [8]  E8 03 10 00 00 00 00 00
 (1648942739.380129)  can0  1E5   [8]  1C FF E0 50 00 00 02 87
 (1648942739.381796)  can0  014   [5]  00 00 00 10 27
 (1648942739.388934)  can0  012   [8]  E8 03 10 00 00 00 00 00
 (1648942739.390169)  can0  1E5   [8]  1C FF E0 70 00 00 02 A7
 (1648942739.391758)  can0  014   [5]  00 00 00 10 27
 (1648942739.398950)  can0  012   [8]  E8 03 10 00 00 00 00 00
 (1648942739.400113)  can0  1E5   [8]  1C FF E0 10 00 00 02 47
 (1648942739.401792)  can0  014   [5]  00 00 00 10 27
 (1648942739.408908)  can0  012   [8]  E8 03 10 00 00 00 00 00
 (1648942739.410149)  can0  1E5   [8]  1C FF E0 30 00 00 02 67
 (1648942739.411792)  can0  014   [5]  00 00 00 10 27
 (1648942739.419033)  can0  012   [8]  E8 03 10 00 00 00 00 00
 (1648942739.420187)  can0  1E5   [8]  1C FF E0 50 00 00 02 87
 (1648942739.421443)  can0  010   [4]  26 73 00 00
 (1648942739.421637)  can0  005   [8]  01 00 00 00 00 00 00 00
 (1648942739.421835)  can0  014   [5]  00 00 00 14 27
 (1648942739.428905)  can0  012   [8]  E8 03 10 00 00 00 00 00
 (1648942739.430123)  can0  1E5   [8]  1C FF E0 70 00 00 02 A7
 (1648942739.431799)  can0  014   [5]  00 00 00 10 27
 (1648942739.438943)  can0  012   [8]  E8 03 10 00 00 00 00 00
 (1648942739.440189)  can0  1E5   [8]  1C FF E0 10 00 00 02 47
 (1648942739.441810)  can0  014   [5]  00 00 00 0C 27
 (1648942739.448922)  can0  012   [8]  E8 03 10 00 00 00 00 00
 (1648942739.450168)  can0  1E5   [8]  1C FF E0 30 00 00 02 67
 (1648942739.451797)  can0  014   [5]  00 00 00 10 27
 (1648942739.458897)  can0  012   [8]  E8 03 10 00 00 00 00 00
 (1648942739.460117)  can0  1E5   [8]  1C FF E0 50 00 00 02 87
 (1648942739.461795)  can0  014   [5]  00 00 00 10 27
 (1648942739.468897)  can0  012   [8]  E8 03 10 00 00 00 00 00
 (1648942739.470118)  can0  1E5   [8]  1C FF E0 70 00 00 02 A7
 (1648942739.471793)  can0  014   [5]  00 00 00 10 27
 (1648942739.478898)  can0  012   [8]  E8 03 10 00 00 00 00 00
 (1648942739.480132)  can0  1E5   [8]  1C FF E0 10 00 00 02 47
 (1648942739.481810)  can0  014   [5]  00 00 00 10 27
 (1648942739.488876)  can0  012   [8]  E8 03 10 00 00 00 00 00
 (1648942739.490146)  can0  1E5   [8]  1C FF E0 30 00 00 02 67
 (1648942739.491798)  can0  014   [5]  00 00 00 10 27
 (1648942739.498911)  can0  012   [8]  E8 03 10 00 00 00 00 00
 (1648942739.500129)  can0  1E5   [8]  1C FF E0 50 00 00 02 87
 (1648942739.501803)  can0  014   [5]  00 00 00 10 27
 (1648942739.508873)  can0  012   [8]  E8 03 10 00 00 00 00 00
 (1648942739.510125)  can0  1E5   [8]  1C FF E0 70 00 00 02 A7
 (1648942739.511801)  can0  014   [5]  00 00 00 10 27
 (1648942739.518901)  can0  012   [8]  E8 03 10 00 00 00 00 00
 (1648942739.520121)  can0  1E5   [8]  1C FF E0 10 00 00 02 47
 (1648942739.521381)  can0  010   [4]  26 73 00 00
 (1648942739.521642)  can0  005   [8]  01 00 00 00 00 00 00 00
 (1648942739.521814)  can0  014   [5]  00 00 00 14 27
 (1648942739.528909)  can0  012   [8]  E8 03 10 00 00 00 00 00
 (1648942739.530132)  can0  1E5   [8]  1C FF E0 30 00 00 02 67
 (1648942739.531805)  can0  014   [5]  00 00 00 10 27
 (1648942739.538908)  can0  012   [8]  E8 03 10 00 00 00 00 00
 (1648942739.540153)  can0  1E5   [8]  1C FF E0 50 00 00 02 87
 (1648942739.541776)  can0  014   [5]  00 00 00 0C 27
 (1648942739.548917)  can0  012   [8]  E8 03 10 00 00 00 00 00
 (1648942739.550132)  can0  1E5   [8]  1C FF E0 70 00 00 02 A7
 (1648942739.551783)  can0  014   [5]  00 00 00 10 27
 (1648942739.558898)  can0  012   [8]  E8 03 10 00 00 00 00 00
 (1648942739.560131)  can0  1E5   [8]  1C FF E0 10 00 00 02 47
 (1648942739.561807)  can0  014   [5]  00 00 00 10 27
 (1648942739.568888)  can0  012   [8]  E8 03 10 00 00 00 00 00
 (1648942739.570127)  can0  1E5   [8]  1C FF E0 30 00 00 02 67
 (1648942739.571776)  can0  014   [5]  00 00 00 10 27
 (1648942739.578926)  can0  012   [8]  E8 03 10 00 00 00 00 00
 (1648942739.580137)  can0  1E5   [8]  1C FF E0 50 00 00 02 87
 (1648942739.581816)  can0  014   [5]  00 00 00 10 27
 (1648942739.588915)  can0  012   [8]  E8 03 10 00 00 00 00 00
 (1648942739.590185)  can0  1E5   [8]  1C FF E0 70 00 00 02 A7
 (1648942739.591780)  can0  014   [5]  00 00 00 10 27
 (1648942739.598921)  can0  012   [8]  E8 03 10 00 00 00 00 00
 (1648942739.600136)  can0  1E5   [8]  1C FF E0 10 00 00 02 47
 (1648942739.601804)  can0  014   [5]  00 00 00 10 27
 (1648942739.608882)  can0  012   [8]  E8 03 10 00 00 00 00 00
 (1648942739.610124)  can0  1E5   [8]  1C FF E0 30 00 00 02 67
 (1648942739.611777)  can0  014   [5]  00 00 00 10 27
 (1648942739.618898)  can0  012   [8]  E8 03 10 00 00 00 00 00
 (1648942739.620121)  can0  1E5   [8]  1C FF E0 50 00 00 02 87
 (1648942739.621369)  can0  010   [4]  26 73 00 00
 (1648942739.621638)  can0  005   [8]  01 00 00 00 00 00 00 00
 (1648942739.621839)  can0  014   [5]  00 00 00 14 27
 (1648942739.628901)  can0  012   [8]  E8 03 10 00 00 00 00 00
 (1648942739.630124)  can0  1E5   [8]  1C FF E0 70 00 00 02 A7
 (1648942739.631776)  can0  014   [5]  00 00 00 10 27
 (1648942739.638898)  can0  012   [8]  E8 03 10 00 00 00 00 00
 (1648942739.640119)  can0  1E5   [8]  1C FF E0 10 00 00 02 47
 (1648942739.641795)  can0  014   [5]  00 00 00 0C 27
 (1648942739.648874)  can0  012   [8]  E8 03 10 00 00 00 00 00
 (1648942739.650127)  can0  1E5   [8]  1C FF E0 30 00 00 02 67
 (1648942739.651773)  can0  014   [5]  00 00 00 10 27
 (1648942739.658902)  can0  012   [8]  E8 03 10 00 00 00 00 00
 (1648942739.660117)  can0  1E5   [8]  1C FF E0 50 00 00 02 87
 (1648942739.661770)  can0  014   [5]  00 00 00 10 27
 (1648942739.668899)  can0  012   [8]  E8 03 10 00 00 00 00 00
 (1648942739.670118)  can0  1E5   [8]  1C FF E0 70 00 00 02 A7
 (1648942739.671792)  can0  014   [5]  00 00 00 10 27
 (1648942739.678904)  can0  012   [8]  E8 03 10 00 00 00 00 00
 (1648942739.680126)  can0  1E5   [8]  1C FF E0 10 00 00 02 47
 (1648942739.681801)  can0  014   [5]  00 00 00 10 27
 (1648942739.688900)  can0  012   [8]  E8 03 10 00 00 00 00 00
 (1648942739.690121)  can0  1E5   [8]  1C FF E0 30 00 00 02 67
 (1648942739.691792)  can0  014   [5]  00 00 00 10 27
 (1648942739.698898)  can0  012   [8]  E8 03 10 00 00 00 00 00
 (1648942739.700128)  can0  1E5   [8]  1C FF E0 50 00 00 02 87
 (1648942739.701802)  can0  014   [5]  00 00 00 10 27
 (1648942739.708876)  can0  012   [8]  E8 03 10 00 00 00 00 00
 (1648942739.710125)  can0  1E5   [8]  1C FF E0 70 00 00 02 A7
 (1648942739.711802)  can0  014   [5]  00 00 00 10 27
 (1648942739.718877)  can0  012   [8]  E8 03 10 00 00 00 00 00
 (1648942739.720120)  can0  1E5   [8]  1C FF E0 10 00 00 02 47
 (1648942739.721369)  can0  010   [4]  26 73 00 00
 (1648942739.721642)  can0  005   [8]  01 00 00 00 00 00 00 00
 (1648942739.721841)  can0  014   [5]  00 00 00 14 27
 (1648942739.728906)  can0  012   [8]  E8 03 10 00 00 00 00 00
 (1648942739.730130)  can0  1E5   [8]  1C FF E0 30 00 00 02 67
 (1648942739.731803)  can0  014   [5]  00 00 00 10 27
 (1648942739.738903)  can0  012   [8]  E8 03 10 00 00 00 00 00
 (1648942739.740119)  can0  1E5   [8]  1C FF E0 50 00 00 02 87
 (1648942739.741796)  can0  014   [5]  00 00 00 0C 27
 (1648942739.748944)  can0  012   [8]  E8 03 10 00 00 00 00 00
 (1648942739.750132)  can0  1E5   [8]  1C FF E0 70 00 00 02 A7
 (1648942739.751806)  can0  014   [5]  00 00 00 10 27
 (1648942739.758879)  can0  012   [8]  E8 03 10 00 00 00 00 00
 (1648942739.760129)  can0  1E5   [8]  1C FF E0 10 00 00 02 47
 (1648942739.761783)  can0  014   [5]  00 00 00 10 27
 (1648942739.768888)  can0  012   [8]  E8 03 10 00 00 00 00 00
 (1648942739.770128)  can0  1E5   [8]  1C FF E0 30 00 00 02 67
 (1648942739.771775)  can0  014   [5]  00 00 00 10 27
 (1648942739.778887)  can0  012   [8]  E8 03 10 00 00 00 00 00
 (1648942739.780134)  can0  1E5   [8]  1C FF E0 50 00 00 02 87
 (1648942739.781787)  can0  014   [5]  00 00 00 10 27
 (1648942739.788883)  can0  012   [8]  E8 03 10 00 00 00 00 00
 (1648942739.790129)  can0  1E5   [8]  1C FF E0 70 00 00 02 A7
 (1648942739.791804)  can0  014   [5]  00 00 00 10 27
 (1648942739.798918)  can0  012   [8]  E8 03 10 00 00 00 00 00
 (1648942739.800111)  can0  1E5   [8]  1C FF E0 10 00 00 02 47
 (1648942739.801788)  can0  014   [5]  00 00 00 10 27
 (1648942739.808884)  can0  012   [8]  E8 03 10 00 00 00 00 00
 (1648942739.810132)  can0  1E5   [8]  1C FF E0 30 00 00 02 67
 (1648942739.811786)  can0  014   [5]  00 00 00 10 27
 (1648942739.818884)  can0  012   [8]  E8 03 10 00 00 00 00 00
 (1648942739.820106)  can0  1E5   [8]  1C FF E0 50 00 00 02 87
 (1648942739.821381)  can0  010   [4]  26 73 00 00
 (1648942739.821652)  can0  005   [8]  01 00 00 00 00 00 00 00
 (1648942739.821851)  can0  014   [5]  00 00 00 14 27
 (1648942739.828915)  can0  012   [8]  E8 03 10 00 00 00 00 00
 (1648942739.830142)  can0  1E5   [8]  1C FF E0 70 00 00 02 A7
 (1648942739.831817)  can0  014   [5]  00 00 00 10 27
 (1648942739.838886)  can0  012   [8]  E8 03 10 00 00 00 00 00
 (1648942739.840129)  can0  1E5   [8]  1C FF E0 10 00 00 02 47
 (1648942739.841783)  can0  014   [5]  00 00 00 0C 27
 (1648942739.848917)  can0  012   [8]  E8 03 10 00 00 00 00 00
 (1648942739.850114)  can0  1E5   [8]  1C FF E0 30 00 00 02 67
 (1648942739.851786)  can0  014   [5]  00 00 00 10 27
 (1648942739.858886)  can0  012   [8]  E8 03 10 00 00 00 00 00
 (1648942739.860134)  can0  1E5   [8]  1C FF E0 50 00 00 02 87
 (1648942739.861813)  can0  014   [5]  00 00 00 10 27
 (1648942739.868890)  can0  012   [8]  E8 03 10 00 00 00 00 00
 (1648942739.870111)  can0  1E5   [8]  1C FF E0 70 00 00 02 A7
 (1648942739.871782)  can0  014   [5]  00 00 00 10 27
 (1648942739.878992)  can0  012   [8]  E8 03 10 00 00 00 00 00
 (1648942739.880254)  can0  1E5   [8]  1C FF E0 10 00 00 02 47
 (1648942739.881789)  can0  014   [5]  00 00 00 10 27
 (1648942739.888946)  can0  012   [8]  E8 03 10 00 00 00 00 00
 (1648942739.890166)  can0  1E5   [8]  1C FF E0 30 00 00 02 67
 (1648942739.891872)  can0  014   [5]  00 00 00 10 27
 (1648942739.898973)  can0  012   [8]  E8 03 10 00 00 00 00 00
 (1648942739.900114)  can0  1E5   [8]  1C FF E0 50 00 00 02 87
 (1648942739.901783)  can0  014   [5]  00 00 00 10 27
 (1648942739.908940)  can0  012   [8]  E8 03 10 00 00 00 00 00
 (1648942739.910369)  can0  1E5   [8]  1C FF E0 70 00 00 02 A7
 (1648942739.911831)  can0  014   [5]  00 00 00 10 27
 (1648942739.918920)  can0  012   [8]  E8 03 10 00 00 00 00 00
 (1648942739.920134)  can0  1E5   [8]  1C FF E0 10 00 00 02 47
 (1648942739.921383)  can0  010   [4]  26 73 00 00
 (1648942739.921658)  can0  005   [8]  01 00 00 00 00 00 00 00
