 (1648942617.567543)  can0  014   [5]  00 00 00 10 27
 (1648942617.568441)  can0  1E5   [8]  1C 02 22 10 00 00 00 8C
 (1648942617.572160)  can0  012   [8]  E8 03 10 00 00 00 00 00
 (1648942617.574103)  can0  010   [4]  36 8B 09 00
 (1648942617.574350)  can0  005   [8]  01 00 00 00 00 00 00 00
 (1648942617.577534)  can0  014   [5]  00 00 00 16 27
 (1648942617.578424)  can0  1E5   [8]  1C 02 22 30 00 00 00 AC
 (1648942617.582172)  can0  012   [8]  E8 03 10 00 00 00 00 00
 (1648942617.587585)  can0  014   [5]  00 00 00 0A 27
 (1648942617.588478)  can0  1E5   [8]  1C 02 22 50 00 00 00 CC
 (1648942617.592150)  can0  012   [8]  E8 03 10 00 00 00 00 00
 (1648942617.597603)  can0  014   [5]  00 00 00 10 27
 (1648942617.598452)  can0  1E5   [8]  1C 02 22 70 00 00 00 EC
 (1648942617.602137)  can0  012   [8]  E8 03 10 00 00 00 00 00
 (1648942617.607627)  can0  014   [5]  00 00 00 10 27
 (1648942617.608487)  can0  1E5   [8]  1C 02 22 10 00 00 00 8C
 (1648942617.612165)  can0  012   [8]  E8 03 10 00 00 00 00 00
 (1648942617.617544)  can0  014   [5]  00 00 00 10 27
 (1648942617.618438)  can0  1E5   [8]  1C 02 22 30 00 00 00 AC
 (1648942617.622190)  can0  012   [8]  E8 03 10 00 00 00 00 00
 (1648942617.627533)  can0  014   [5]  00 00 00 10 27
 (1648942617.628475)  can0  1E5   [8]  1C 02 22 50 00 00 00 CC
 (1648942617.632169)  can0  012   [8]  E8 03 10 00 00 00 00 00
 (1648942617.637606)  can0  014   [5]  00 00 00 10 27
 (1648942617.638491)  can0  1E5   [8]  1C 02 22 70 00 00 00 EC
 (1648942617.642484)  can0  012   [8]  E8 03 10 00 00 00 00 00
 (1648942617.647573)  can0  014   [5]  00 00 00 10 27
 (1648942617.648537)  can0  1E5   [8]  1C 02 22 10 00 00 00 8C
 (1648942617.652122)  can0  012   [8]  E8 03 10 00 00 00 00 00
 (1648942617.657591)  can0  014   [5]  00 00 00 10 27
 (1648942617.658487)  can0  1E5   [8]  1C 02 22 30 00 00 00 AC
 (1648942617.662145)  can0  012   [8]  E8 03 10 00 00 00 00 00
 (1648942617.667552)  can0  014   [5]  00 00 00 10 27
 (1648942617.668470)  can0  1E5   [8]  1C 02 22 50 00 00 00 CC
 (1648942617.672116)  can0  012   [8]  E8 03 10 00 00 00 00 00
 (1648942617.674066)  can0  010   [4]  36 8B 09 00
 (1648942617.674341)  can0  005   [8]  01 00 00 00 00 00 00 00
 (1648942617.677557)  can0  014   [5]  00 00 00 16 27
 (1648942617.678441)  can0  1E5   [8]  1C 02 22 70 00 00 00 EC
 (1648942617.682171)  can0  012   [8]  E8 03 10 00 00 00 00 00
 (1648942617.687566)  can0  014   [5]  00 00 00 0A 27
 (1648942617.688465)  can0  1E5   [8]  1C 02 22 10 00 00 00 8C
 (1648942617.692164)  can0  012   [8]  E8 03 10 00 00 00 00 00
 (1648942617.697595)  can0  014   [5]  FF 0F 00 10 27
 (1648942617.698425)  can0  1E5   [8]  1C 02 22 30 00 00 00 AC
 (1648942617.702123)  can0  012   [8]  E8 03 10 00 00 00 00 00
 (1648942617.707584)  can0  014   [5]  00 00 00 10 27
 (1648942617.708470)  can0  1E5   [8]  1C 02 22 50 00 00 00 CC
 (1648942617.712133)  can0  012   [8]  E8 03 10 00 00 00 00 00
 (1648942617.717589)  can0  014   [5]  00 00 00 10 27
 (1648942617.718437)  can0  1E5   [8]  1C 02 22 70 00 00 00 EC
 (1648942617.722168)  can0  012   [8]  E8 03 10 00 00 00 00 00
 (1648942617.727596)  can0  014   [5]  00 00 00 10 27
 (1648942617.728519)  can0  1E5   [8]  1C 02 22 10 00 00 00 8C
 (1648942617.732162)  can0  012   [8]  E8 03 10 00 00 00 00 00
 (1648942617.737582)  can0  014   [5]  00 00 00 10 27
 (1648942617.738490)  can0  1E5   [8]  1C 02 22 30 00 00 00 AC
 (1648942617.742176)  can0  012   [8]  E8 03 10 00 00 00 00 00
 (1648942617.747604)  can0  014   [5]  00 00 00 10 27
 (1648942617.748567)  can0  1E5   [8]  1C 02 22 50 00 00 00 CC
 (1648942617.752176)  can0  012   [8]  E8 03 10 00 00 00 00 00
 (1648942617.757589)  can0  014   [5]  00 00 00 10 27
 (1648942617.758489)  can0  1E5   [8]  1C 02 22 70 00 00 00 EC
 (1648942617.762143)  can0  012   [8]  E8 03 10 00 00 00 00 00
 (1648942617.767561)  can0  014   [5]  00 00 00 10 27
 (1648942617.768479)  can0  1E5   [8]  1C 02 22 10 00 00 00 8C
 (1648942617.772165)  can0  012   [8]  E8 03 10 00 00 00 00 00
 (1648942617.774120)  can0  010   [4]  36 8B 09 00
 (1648942617.774343)  can0  005   [8]  01 00 00 00 00 00 00 00
 (1648942617.777573)  can0  014   [5]  00 F0 FF 17 27
 (1648942617.778446)  can0  1E5   [8]  1C 02 22 30 00 00 00 AC
 (1648942617.782212)  can0  012   [8]  E8 03 10 00 00 00 00 00
 (1648942617.787597)  can0  014   [5]  00 00 00 08 27
 (1648942617.788466)  can0  1E5   [8]  1C 02 22 50 00 00 00 CC
 (1648942617.792172)  can0  012   [8]  E8 03 10 00 00 00 00 00
 (1648942617.797567)  can0  014   [5]  00 00 00 11 27
 (1648942617.798483)  can0  1E5   [8]  1C 02 22 70 00 00 00 EC
 (1648942617.802130)  can0  012   [8]  E8 03 10 00 00 00 00 00
 (1648942617.807591)  can0  014   [5]  00 00 00 10 27
 (1648942617.808430)  can0  1E5   [8]  1C 02 22 10 00 00 00 8C
 (1648942617.812173)  can0  012   [8]  E8 03 10 00 00 00 00 00
 (1648942617.817594)  can0  014   [5]  00 00 00 10 27
 (1648942617.818430)  can0  1E5   [8]  1C 02 22 30 00 00 00 AC
 (1648942617.822743)  can0  012   [8]  E8 03 10 00 00 00 00 00
 (1648942617.827564)  can0  014   [5]  00 00 00 10 27
 (1648942617.828515)  can0  1E5   [8]  1C 02 22 50 00 00 00 CC
 (1648942617.832158)  can0  012   [8]  E8 03 10 00 00 00 00 00
 (1648942617.837609)  can0  014   [5]  00 00 00 10 27
 (1648942617.838494)  can0  1E5   [8]  1C 02 22 70 00 00 00 EC
 (1648942617.842178)  can0  012   [8]  E8 03 10 00 00 00 00 00
 (1648942617.847537)  can0  014   [5]  00 00 00 10 27
 (1648942617.848512)  can0  1E5   [8]  1C 02 22 10 00 00 00 8C
 (1648942617.852162)  can0  012   [8]  E8 03 10 00 00 00 00 00
 (1648942617.857620)  can0  014   [5]  00 00 00 10 27
 (1648942617.858489)  can0  1E5   [8]  1C 02 22 30 00 00 00 AC
 (1648942617.862149)  can0  012   [8]  E8 03 10 00 00 00 00 00
 (1648942617.867546)  can0  014   [5]  00 00 00 10 27
 (1648942617.868437)  can0  1E5   [8]  1C 02 22 50 00 00 00 CC
 (1648942617.872173)  can0  012   [8]  E8 03 10 00 00 00 00 00
 (1648942617.874123)  can0  010   [4]  36 8B 09 00
 (1648942617.874352)  can0  005   [8]  01 00 00 00 00 00 00 00
 (1648942617.877563)  can0  014   [5]  00 00 00 16 27
 (1648942617.878444)  can0  1E5   [8]  1C 02 22 70 00 00 00 EC
 (1648942617.882184)  can0  012   [8]  E8 03 10 00 00 00 00 00
 (1648942617.887579)  can0  014   [5]  00 00 00 0A 27
 (1648942617.888478)  can0  1E5   [8]  1C 02 22 10 00 00 00 8C
 (1648942617.892175)  can0  012   [8]  E8 03 10 00 00 00 00 00
 (1648942617.897592)  can0  014   [5]  00 00 00 10 27
 (1648942617.898509)  can0  1E5   [8]  1C 02 22 30 00 00 00 AC
 (1648942617.902179)  can0  012   [8]  E8 03 10 00 00 00 00 00
 (1648942617.907530)  can0  014   [5]  00 00 00 10 27
 (1648942617.908470)  can0  1E5   [8]  1C 02 22 50 00 00 00 CC
 (1648942617.912160)  can0  012   [8]  E8 03 10 00 00 00 00 00
 (1648942617.917585)  can0  014   [5]  00 00 00 10 27
 (1648942617.918459)  can0  1E5   [8]  1C 02 22 70 00 00 00 EC
 (1648942617.922131)  can0  012   [8]  E8 03 10 00 00 00 00 00
 (1648942617.927543)  can0  014   [5]  00 00 00 10 27
 (1648942617.928450)  can0  1E5   [8]  1C 02 22 10 00 00 00 8C
 (1648942617.932251)  can0  012   [8]  E8 03 10 00 00 00 00 00
 (1648942617.937604)  can0  014   [5]  00 00 00 10 27
 (1648942617.938471)  can0  1E5   [8]  1C 02 22 30 00 00 00 AC
 (1648942617.942108)  can0  012   [8]  E8 03 10 00 00 00 00 00
 (1648942617.947621)  can0  014   [5]  00 00 00 10 27
 (1648942617.948458)  can0  1E5   [8]  1C 02 22 50 00 00 00 CC
 (1648942617.952179)  can0  012   [8]  E8 03 10 00 00 00 00 00
 (1648942617.957597)  can0  014   [5]  00 00 00 10 27
 (1648942617.958480)  can0  1E5   [8]  1C 02 22 70 00 00 00 EC
 (1648942617.962146)  can0  012   [8]  E8 03 10 00 00 00 00 00
 (1648942617.967617)  can0  014   [5]  00 00 00 10 27
 (1648942617.968463)  can0  1E5   [8]  1C 02 22 10 00 00 00 8C
 (1648942617.972183)  can0  012   [8]  E8 03 10 00 00 00 00 00
 (1648942617.974133)  can0  010   [4]  36 8B 09 00
 (1648942617.974388)  can0  005   [8]  01 00 00 00 00 00 00 00
 (1648942617.977562)  can0  014   [5]  00 00 00 17 27
 (1648942617.978452)  can0  1E5   [8]  1C 02 22 30 00 00 00 AC
 (1648942617.982181)  can0  012   [8]  E8 03 10 00 00 00 00 00
 (1648942617.982247)  can0  0E3   [2]  83 01
 (1648942617.987600)  can0  014   [5]  00 00 00 0C 27
 (1648942617.988480)  can0  1E5   [8]  1C 02 22 50 00 00 00 CC
 (1648942617.992176)  can0  012   [8]  E8 03 10 00 00 00 00 00
 (1648942617.997586)  can0  014   [5]  00 00 00 0D 27
 (1648942617.998485)  can0  1E5   [8]  1C 02 22 70 00 00 00 EC
 (1648942618.002178)  can0  012   [8]  E8 03 10 00 00 00 00 00
 (1648942618.007566)  can0  014   [5]  00 00 00 10 27
 (1648942618.008465)  can0  1E5   [8]  1C 02 22 10 00 00 00 8C
 (1648942618.012151)  can0  012   [8]  E8 03 10 00 00 00 00 00
 (1648942618.017538)  can0  014   [5]  00 00 00 10 27
 (1648942618.018443)  can0  1E5   [8]  1C 02 22 30 00 00 00 AC
 (1648942618.022156)  can0  012   [8]  E8 03 10 00 00 00 00 00
 (1648942618.027560)  can0  014   [5]  00 00 00 10 27
 (1648942618.028450)  can0  1E5   [8]  1C 02 22 50 00 00 00 CC
 (1648942618.032259)  can0  012   [8]  E8 03 10 00 00 00 00 00
 (1648942618.037579)  can0  014   [5]  00 00 00 10 27
 (1648942618.038471)  can0  1E5   [8]  1C 02 22 70 00 00 00 EC
 (1648942618.042177)  can0  012   [8]  E8 03 10 00 00 00 00 00
 (1648942618.047575)  can0  014   [5]  00 00 00 10 27
 (1648942618.048484)  can0  1E5   [8]  1C 02 22 10 00 00 00 8C
 (1648942618.052165)  can0  012   [8]  E8 03 10 00 00 00 00 00
 (1648942618.057616)  can0  014   [5]  00 00 00 10 27
 (1648942618.058482)  can0  1E5   [8]  1C 02 22 30 00 00 00 AC
 (1648942618.062186)  can0  012   [8]  E8 03 10 00 00 00 00 00
 (1648942618.067619)  can0  014   [5]  00 00 00 10 27
 (1648942618.068459)  can0  1E5   [8]  1C 02 22 50 00 00 00 CC
 (1648942618.072159)  can0  012   [8]  E8 03 10 00 00 00 00 00
 (1648942618.074139)  can0  010   [4]  36 8B 09 00
 (1648942618.074396)  can0  005   [8]  01 00 00 00 00 00 00 00
 (1648942618.077571)  can0  014   [5]  00 00 00 16 27
 (1648942618.078466)  can0  1E5   [8]  1C 02 22 70 00 00 00 EC
 (1648942618.082275)  can0  012   [8]  E8 03 10 00 00 00 00 00
 (1648942618.087814)  can0  014   [5]  00 00 00 0A 27
 (1648942618.088494)  can0  1E5   [8]  1C 02 22 10 00 00 00 8C
 (1648942618.092170)  can0  012   [8]  E8 03 10 00 00 00 00 00
 (1648942618.097616)  can0  014   [5]  00 00 00 10 27
 (1648942618.098486)  can0  1E5   [8]  1C 02 22 30 00 00 00 AC
 (1648942618.102210)  can0  012   [8]  E8 03 10 00 00 00 00 00
 (1648942618.107656)  can0  014   [5]  00 00 00 10 27
 (1648942618.108491)  can0  1E5   [8]  1C 02 22 50 00 00 00 CC
 (1648942618.112158)  can0  012   [8]  E8 03 10 00 00 00 00 00
 (1648942618.117550)  can0  014   [5]  00 00 00 10 27
 (1648942618.118497)  can0  1E5   [8]  1C 02 22 70 00 00 00 EC
 (1648942618.122195)  can0  012   [8]  E8 03 10 00 00 00 00 00
 (1648942618.127546)  can0  014   [5]  00 00 00 10 27
 (1648942618.128507)  can0  1E5   [8]  1C 02 22 10 00 00 00 8C
 (1648942618.132163)  can0  012   [8]  E8 03 10 00 00 00 00 00
 (1648942618.137582)  can0  014   [5]  00 00 00 10 27
 (1648942618.138460)  can0  1E5   [8]  1C 02 22 30 00 00 00 AC
 (1648942618.142144)  can0  012   [8]  E8 03 10 00 00 00 00 00
 (1648942618.147617)  can0  014   [5]  00 00 00 10 27
 (1648942618.148535)  can0  1E5   [8]  1C 02 22 50 00 00 00 CC
 (1648942618.152172)  can0  012   [8]  E8 03 10 00 00 00 00 00
 (1648942618.157631)  can0  014   [5]  FF 0F 00 10 27
 (1648942618.158636)  can0  1E5   [8]  1C 02 22 70 00 00 00 EC
 (1648942618.162163)  can0  012   [8]  E8 03 10 00 00 00 00 00
 (1648942618.167633)  can0  014   [5]  00 00 00 10 27
 (1648942618.168484)  can0  1E5   [8]  1C 02 22 10 00 00 00 8C
 (1648942618.172607)  can0  012   [8]  E8 03 10 00 00 00 00 00
 (1648942618.174199)  can0  010   [4]  36 8B 09 00
 (1648942618.174369)  can0  005   [8]  01 00 00 00 00 00 00 00
 (1648942618.174514)  can0  0E2   [2]  83 01
 (1648942618.177589)  can0  014   [5]  00 00 00 1A 27
 (1648942618.177714)  can0  0E4   [2]  83 01
 (1648942618.178485)  can0  1E5   [8]  1C 02 22 30 00 00 00 AC
 (1648942618.182155)  can0  012   [8]  E8 03 10 00 00 00 00 00
 (1648942618.187598)  can0  014   [5]  00 00 00 05 27
 (1648942618.188439)  can0  1E5   [8]  1C 02 22 50 00 00 00 CC
 (1648942618.192186)  can0  012   [8]  E8 03 10 00 00 00 00 00
 (1648942618.197639)  can0  014   [5]  00 00 00 11 27
 (1648942618.198498)  can0  1E5   [8]  1C 02 22 70 00 00 00 EC
 (1648942618.202206)  can0  012   [8]  E8 03 10 00 00 00 00 00
 (1648942618.207600)  can0  014   [5]  00 00 00 10 27
 (1648942618.208497)  can0  1E5   [8]  1C 02 22 10 00 00 00 8C
 (1648942618.212159)  can0  012   [8]  E8 03 10 00 00 00 00 00
 (1648942618.217624)  can0  014   [5]  00 00 00 10 27
 (1648942618.218511)  can0  1E5   [8]  1C 02 22 30 00 00 00 AC
 (1648942618.222156)  can0  012   [8]  E8 03 10 00 00 00 00 00
 (1648942618.227558)  can0  014   [5]  00 00 00 10 27
 (1648942618.228463)  can0  1E5   [8]  1C 02 22 50 00 00 00 CC
 (1648942618.232135)  can0  012   [8]  E8 03 10 00 00 00 00 00
 (1648942618.237634)  can0  014   [5]  00 00 00 10 27
 (1648942618.238489)  can0  1E5   [8]  1C 02 22 70 00 00 00 EC
 (1648942618.242180)  can0  012   [8]  E8 03 10 00 00 00 00 00
 (1648942618.247559)  can0  014   [5]  00 00 00 10 27
 (1648942618.248510)  can0  1E5   [8]  1C 02 22 10 00 00 00 8C
 (1648942618.252207)  can0  012   [8]  E8 03 10 00 00 00 00 00
 (1648942618.257606)  can0  014   [5]  00 00 00 10 27
 (1648942618.258510)  can0  1E5   [8]  1C 02 22 30 00 00 00 AC
 (1648942618.262218)  can0  012   [8]  E8 03 10 00 00 00 00 00
 (1648942618.267628)  can0  014   [5]  00 00 00 10 27
 (1648942618.268454)  can0  1E5   [8]  1C 02 22 50 00 00 00 CC
 (1648942618.272195)  can0  012   [8]  E8 03 10 00 00 00 00 00
 (1648942618.274148)  can0  010   [4]  36 8B 09 00
 (1648942618.274381)  can0  005   [8]  01 00 00 00 00 00 00 00
 (1648942618.277614)  can0  014   [5]  00 00 00 16 27
 (1648942618.278490)  can0  1E5   [8]  1C 02 22 70 00 00 00 EC
 (1648942618.282213)  can0  012   [8]  E8 03 10 00 00 00 00 00
 (1648942618.287585)  can0  014   [5]  00 00 00 0A 27
 (1648942618.288504)  can0  1E5   [8]  1C 02 22 10 00 00 00 8C
 (1648942618.292200)  can0  012   [8]  E8 03 10 00 00 00 00 00
 (1648942618.297574)  can0  014   [5]  00 00 00 10 27
 (1648942618.298489)  can0  1E5   [8]  1C 02 22 30 00 00 00 AC
 (1648942618.302185)  can0  012   [8]  E8 03 10 00 00 00 00 00
 (1648942618.307611)  can0  014   [5]  00 00 00 10 27
 (1648942618.308505)  can0  1E5   [8]  1C 02 22 50 00 00 00 CC
 (1648942618.312206)  can0  012   [8]  E8 03 10 00 00 00 00 00
 (1648942618.317570)  can0  014   [5]  00 00 00 10 27
 (1648942618.318502)  can0  1E5   [8]  1C 02 22 70 00 00 00 EC
 (1648942618.322213)  can0  012   [8]  E8 03 10 00 00 00 00 00
 (1648942618.327611)  can0  014   [5]  00 00 00 10 27
 (1648942618.328508)  can0  1E5   [8]  1C 02 22 10 00 00 00 8C
 (1648942618.332202)  can0  012   [8]  E8 03 10 00 00 00 00 00
 (1648942618.337561)  can0  014   [5]  00 00 00 10 27
 (1648942618.338513)  can0  1E5   [8]  1C 02 22 30 00 00 00 AC
 (1648942618.342475)  can0  012   [8]  E8 03 10 00 00 00 00 00
 (1648942618.347609)  can0  014   [5]  00 00 00 10 27
 (1648942618.348487)  can0  1E5   [8]  1C 02 22 50 00 00 00 CC
 (1648942618.352214)  can0  012   [8]  E8 03 10 00 00 00 00 00
 (1648942618.357605)  can0  014   [5]  00 00 00 10 27
 (1648942618.358622)  can0  1E5   [8]  1C 02 22 70 00 00 00 EC
 (1648942618.362205)  can0  012   [8]  E8 03 10 00 00 00 00 00
 (1648942618.367616)  can0  014   [5]  00 00 00 10 27
 (1648942618.368485)  can0  1E5   [8]  1C 02 22 10 00 00 00 8C
 (1648942618.372137)  can0  012   [8]  E8 03 10 00 00 00 00 00
 (1648942618.374199)  can0  010   [4]  36 8B 09 00
 (1648942618.374404)  can0  005   [8]  01 00 00 00 00 00 00 00
 (1648942618.377688)  can0  014   [5]  00 F0 FF 17 27
 (1648942618.378501)  can0  1E5   [8]  1C 02 22 30 00 00 00 AC
 (1648942618.382193)  can0  012   [8]  E8 03 10 00 00 00 00 00
 (1648942618.387854)  can0  014   [5]  00 00 00 08 27
 (1648942618.388481)  can0  1E5   [8]  1C 02 22 50 00 00 00 CC
 (1648942618.392212)  can0  012   [8]  E8 03 10 00 00 00 00 00
 (1648942618.397571)  can0  014   [5]  00 00 00 11 27
 (1648942618.398518)  can0  1E5   [8]  1C 02 22 70 00 00 00 EC
 (1648942618.402209)  can0  012   [8]  E8 03 10 00 00 00 00 00
 (1648942618.407618)  can0  014   [5]  00 00 00 10 27
 (1648942618.408521)  can0  1E5   [8]  1C 02 22 10 00 00 00 8C
 (1648942618.412202)  can0  012   [8]  E8 03 10 00 00 00 00 00
 (1648942618.417612)  can0  014   [5]  00 00 00 10 27
 (1648942618.418498)  can0  1E5   [8]  1C 02 22 30 00 00 00 AC
 (1648942618.422501)  can0  012   [8]  E8 03 10 00 00 00 00 00
 (1648942618.427651)  can0  014   [5]  00 00 00 10 27
 (1648942618.428494)  can0  1E5   [8]  1C 02 22 50 00 00 00 CC
 (1648942618.432192)  can0  012   [8]  E8 03 10 00 00 00 00 00
 (1648942618.437627)  can0  014   [5]  00 00 00 10 27
 (1648942618.438507)  can0  1E5   [8]  1C 02 22 70 00 00 00 EC
 (1648942618.442223)  can0  012   [8]  E8 03 10 00 00 00 00 00
 (1648942618.447620)  can0  014   [5]  00 00 00 10 27
 (1648942618.448490)  can0  1E5   [8]  1C 02 22 10 00 00 00 8C
 (1648942618.452197)  can0  012   [8]  E8 03 10 00 00 00 00 00
 (1648942618.457620)  can0  014   [5]  00 00 00 10 27
 (1648942618.458501)  can0  1E5   [8]  1C 02 22 30 00 00 00 AC
 (1648942618.462177)  can0  012   [8]  E8 03 10 00 00 00 00 00
 (1648942618.467613)  can0  014   [5]  00 00 00 10 27
 (1648942618.468447)  can0  1E5   [8]  1C 02 22 50 00 00 00 CC
 (1648942618.472173)  can0  012   [8]  E8 03 10 00 00 00 00 00
 (1648942618.474171)  can0  010   [4]  36 8B 09 00
 (1648942618.474405)  can0  005   [8]  01 00 00 00 00 00 00 00
 (1648942618.477647)  can0  014   [5]  00 00 00 16 27
 (1648942618.478495)  can0  1E5   [8]  1C 02 22 70 00 00 00 EC
 (1648942618.482212)  can0  012   [8]  E8 03 10 00 00 00 00 00
 (1648942618.487624)  can0  014   [5]  00 00 00 0A 27
 (1648942618.488516)  can0  1E5   [8]  1C 02 22 10 00 00 00 8C
 (1648942618.492467)  can0  012   [8]  E8 03 10 00 00 00 00 00
 (1648942618.497594)  can0  014   [5]  00 00 00 10 27
 (1648942618.498509)  can0  1E5   [8]  1C 02 22 30 00 00 00 AC
 (1648942618.502199)  can0  012   [8]  E8 03 10 00 00 00 00 00
 (1648942618.507826)  can0  014   [5]  00 00 00 10 27
 (1648942618.508454)  can0  1E5   [8]  1C 02 22 50 00 00 00 CC
 (1648942618.512159)  can0  012   [8]  E8 03 10 00 00 00 00 00
 (1648942618.517582)  can0  014   [5]  00 00 00 10 27
 (1648942618.518492)  can0  1E5   [8]  1C 02 22 70 00 00 00 EC
 (1648942618.522190)  can0  012   [8]  E8 03 10 00 00 00 00 00
 (1648942618.527668)  can0  014   [5]  00 00 00 10 27
 (1648942618.528501)  can0  1E5   [8]  1C 02 22 10 00 00 00 8C
 (1648942618.532200)  can0  012   [8]  E8 03 10 00 00 00 00 00
 (1648942618.537878)  can0  014   [5]  00 00 00 10 27
 (1648942618.538484)  can0  1E5   [8]  1C 02 22 30 00 00 00 AC
 (1648942618.542219)  can0  012   [8]  E8 03 10 00 00 00 00 00
 (1648942618.547619)  can0  014   [5]  00 00 00 10 27
 (1648942618.548509)  can0  1E5   [8]  1C 02 22 50 00 00 00 CC
 (1648942618.552203)  can0  012   [8]  E8 03 10 00 00 00 00 00
 (1648942618.557626)  can0  014   [5]  00 00 00 10 27
 (1648942618.558503)  can0  1E5   [8]  1C 02 22 70 00 00 00 EC
 (1648942618.562199)  can0  012   [8]  E8 03 10 00 00 00 00 00
 (1648942618.567620)  can0  014   [5]  00 00 00 10 27
 (1648942618.568497)  can0  1E5   [8]  1C 02 22 10 00 00 00 8C
 (1648942618.572513)  can0  012   [8]  E8 03 10 00 00 00 00 00
 (1648942618.574184)  can0  010   [4]  36 8B 09 00
 (1648942618.574404)  can0  005   [8]  01 00 00 00 00 00 00 00
 (1648942618.577679)  can0  014   [5]  00 00 00 16 27
 (1648942618.578461)  can0  1E5   [8]  1C 02 22 30 00 00 00 AC
 (1648942618.582193)  can0  012   [8]  E8 03 10 00 00 00 00 00
 (1648942618.587642)  can0  014   [5]  00 00 00 0A 27
 (1648942618.588466)  can0  1E5   [8]  1C 02 22 50 00 00 00 CC
 (1648942618.592210)  can0  012   [8]  E8 03 10 00 00 00 00 00
 (1648942618.597795)  can0  014   [5]  00 00 00 10 27
 (1648942618.598464)  can0  1E5   [8]  1C 02 22 70 00 00 00 EC
 (1648942618.602200)  can0  012   [8]  E8 03 10 00 00 00 00 00
 (1648942618.607644)  can0  014   [5]  00 00 00 10 27
 (1648942618.608504)  can0  1E5   [8]  1C 02 22 10 00 00 00 8C
 (1648942618.612155)  can0  012   [8]  E8 03 10 00 00 00 00 00
 (1648942618.617634)  can0  014   [5]  00 00 00 10 27
 (1648942618.618461)  can0  1E5   [8]  1C 02 22 30 00 00 00 AC
 (1648942618.622151)  can0  012   [8]  E8 03 10 00 00 00 00 00
 (1648942618.627649)  can0  014   [5]  00 00 00 10 27
 (1648942618.628481)  can0  1E5   [8]  1C 02 22 50 00 00 00 CC
 (1648942618.632190)  can0  012   [8]  E8 03 10 00 00 00 00 00
 (1648942618.637608)  can0  014   [5]  00 00 00 10 27
 (1648942618.638513)  can0  1E5   [8]  1C 02 22 70 00 00 00 EC
 (1648942618.642157)  can0  012   [8]  E8 03 10 00 00 00 00 00
 (1648942618.647639)  can0  014   [5]  00 00 00 10 27
 (1648942618.648482)  can0  1E5   [8]  1C 02 22 10 00 00 00 8C
 (1648942618.652212)  can0  012   [8]  E8 03 10 00 00 00 00 00
 (1648942618.657667)  can0  014   [5]  00 00 00 10 27
 (1648942618.658498)  can0  1E5   [8]  1C 02 22 30 00 00 00 AC
 (1648942618.662169)  can0  012   [8]  E8 03 10 00 00 00 00 00
 (1648942618.667642)  can0  014   [5]  00 00 00 10 27
 (1648942618.668506)  can0  1E5   [8]  1C 02 22 50 00 00 00 CC
 (1648942618.672211)  can0  012   [8]  E8 03 10 00 00 00 00 00
 (1648942618.674184)  can0  010   [4]  36 8B 09 00
 (1648942618.674413)  can0  005   [8]  01 00 00 00 00 00 00 00
 (1648942618.677620)  can0  014   [5]  00 00 00 17 27
 (1648942618.678457)  can0  1E5   [8]  1C 02 22 70 00 00 00 EC
 (1648942618.682189)  can0  012   [8]  E8 03 10 00 00 00 00 00
 (1648942618.687635)  can0  014   [5]  00 00 00 08 27
 (1648942618.688519)  can0  1E5   [8]  1C 02 22 10 00 00 00 8C
 (1648942618.692511)  can0  012   [8]  E8 03 10 00 00 00 00 00
 (1648942618.697642)  can0  014   [5]  00 00 00 11 27
 (1648942618.698512)  can0  1E5   [8]  1C 02 22 30 00 00 00 AC
 (1648942618.703067)  can0  012   [8]  E8 03 10 00 00 00 00 00
 (1648942618.707644)  can0  014   [5]  00 00 00 10 27
 (1648942618.708488)  can0  1E5   [8]  1C 02 22 50 00 00 00 CC
 (1648942618.712173)  can0  012   [8]  E8 03 10 00 00 00 00 00
 (1648942618.717629)  can0  014   [5]  00 00 00 10 27
 (1648942618.718517)  can0  1E5   [8]  1C 02 22 70 00 00 00 EC
 (1648942618.722202)  can0  012   [8]  E8 03 10 00 00 00 00 00
 (1648942618.727651)  can0  014   [5]  00 00 00 10 27
 (1648942618.728481)  can0  1E5   [8]  1C 02 22 10 00 00 00 8C
 (1648942618.732256)  can0  012   [8]  E8 03 10 00 00 00 00 00
 (1648942618.737672)  can0  014   [5]  00 00 00 10 27
 (1648942618.738503)  can0  1E5   [8]  1C 02 22 30 00 00 00 AC
 (1648942618.742213)  can0  012   [8]  E8 03 10 00 00 00 00 00
 (1648942618.747642)  can0  014   [5]  00 00 00 10 27
 (1648942618.748510)  can0  1E5   [8]  1C 02 22 50 00 00 00 CC
 (1648942618.752167)  can0  012   [8]  E8 03 10 00 00 00 00 00
 (1648942618.757614)  can0  014   [5]  00 00 00 10 27
 (1648942618.758532)  can0  1E5   [8]  1C 02 22 70 00 00 00 EC
 (1648942618.762166)  can0  012   [8]  E8 03 10 00 00 00 00 00
 (1648942618.767649)  can0  014   [5]  FF 0F 00 10 27
 (1648942618.768466)  can0  1E5   [8]  1C 02 22 10 00 00 00 8C
 (1648942618.772164)  can0  012   [8]  E8 03 10 00 00 00 00 00
 (1648942618.774190)  can0  010   [4]  36 8B 09 00
 (1648942618.774424)  can0  005   [8]  01 00 00 00 00 00 00 00
 (1648942618.777642)  can0  014   [5]  00 00 00 16 27
 (1648942618.778529)  can0  1E5   [8]  1C 02 22 30 00 00 00 AC
 (1648942618.782216)  can0  012   [8]  E8 03 10 00 00 00 00 00
 (1648942618.787841)  can0  014   [5]  00 00 00 0A 27
 (1648942618.788530)  can0  1E5   [8]  1C 02 22 50 00 00 00 CC
 (1648942618.792364)  can0  012   [8]  E8 03 10 00 00 00 00 00
 (1648942618.797758)  can0  014   [5]  00 00 00 10 27
 (1648942618.798481)  can0  1E5   [8]  1C 02 22 70 00 00 00 EC
 (1648942618.802174)  can0  012   [8]  E8 03 10 00 00 00 00 00
 (1648942618.807619)  can0  014   [5]  00 00 00 10 27
 (1648942618.808568)  can0  1E5   [8]  1C 02 22 10 00 00 00 8C
 (1648942618.812170)  can0  012   [8]  E8 03 10 00 00 00 00 00
 (1648942618.817616)  can0  014   [5]  00 00 00 10 27
 (1648942618.818504)  can0  1E5   [8]  1C 02 22 30 00 00 00 AC
 (1648942618.822221)  can0  012   [8]  E8 03 10 00 00 00 00 00
 (1648942618.827635)  can0  014   [5]  00 00 00 10 27
 (1648942618.828450)  can0  1E5   [8]  1C 02 22 50 00 00 00 CC
 (1648942618.832225)  can0  012   [8]  E8 03 10 00 00 00 00 00
 (1648942618.838231)  can0  014   [5]  FF 0F 00 10 27
 (1648942618.838512)  can0  1E5   [8]  1C 02 22 70 00 00 00 EC
 (1648942618.843274)  can0  012   [8]  E8 03 10 00 00 00 00 00
 (1648942618.847648)  can0  014   [5]  00 00 00 10 27
 (1648942618.848523)  can0  1E5   [8]  1C 02 22 10 00 00 00 8C
 (1648942618.852186)  can0  012   [8]  E8 03 10 00 00 00 00 00
 (1648942618.857601)  can0  014   [5]  00 F0 FF 10 27
 (1648942618.858513)  can0  1E5   [8]  1C 02 22 30 00 00 00 AC
 (1648942618.862226)  can0  012   [8]  E8 03 10 00 00 00 00 00
 (1648942618.867641)  can0  014   [5]  00 00 00 10 27
 (1648942618.868506)  can0  1E5   [8]  1C 02 22 50 00 00 00 CC
 (1648942618.872223)  can0  012   [8]  E8 03 10 00 00 00 00 00
 (1648942618.874177)  can0  010   [4]  36 8B 09 00
 (1648942618.874451)  can0  005   [8]  01 00 00 00 00 00 00 00
 (1648942618.877639)  can0  014   [5]  00 00 00 17 27
 (1648942618.878528)  can0  1E5   [8]  1C 02 22 70 00 00 00 EC
 (1648942618.882246)  can0  012   [8]  E8 03 10 00 00 00 00 00
 (1648942618.888531)  can0  014   [5]  00 00 00 08 27
 (1648942618.888540)  can0  1E5   [8]  1C 02 22 10 00 00 00 8C
 (1648942618.892919)  can0  012   [8]  E8 03 10 00 00 00 00 00
 (1648942618.897600)  can0  014   [5]  00 00 00 11 27
 (1648942618.898495)  can0  1E5   [8]  1C 02 22 30 00 00 00 AC
 (1648942618.902217)  can0  012   [8]  E8 03 10 00 00 00 00 00
 (1648942618.907650)  can0  014   [5]  00 00 00 10 27
 (1648942618.908529)  can0  1E5   [8]  1C 02 22 50 00 00 00 CC
 (1648942618.912193)  can0  012   [8]  E8 03 10 00 00 00 00 00
 (1648942618.917647)  can0  014   [5]  00 00 00 10 27
 (1648942618.918535)  can0  1E5   [8]  1C 02 22 70 00 00 00 EC
 (1648942618.922409)  can0  012   [8]  E8 03 10 00 00 00 00 00
 (1648942618.927647)  can0  014   [5]  00 00 00 10 27
 (1648942618.928456)  can0  1E5   [8]  1C 02 22 10 00 00 00 8C
 (1648942618.932213)  can0  012   [8]  E8 03 10 00 00 00 00 00
 (1648942618.937652)  can0  014   [5]  00 00 00 10 27
 (1648942618.938479)  can0  1E5   [8]  1C 02 22 30 00 00 00 AC
 (1648942618.942176)  can0  012   [8]  E8 03 10 00 00 00 00 00
 (1648942618.947629)  can0  014   [5]  FF 0F 00 10 27
 (1648942618.948486)  can0  1E5   [8]  1C 02 22 50 00 00 00 CC
 (1648942618.952220)  can0  012   [8]  E8 03 10 00 00 00 00 00
 (1648942618.957645)  can0  014   [5]  00 00 00 10 27
 (1648942618.958507)  can0  1E5   [8]  1C 02 22 70 00 00 00 EC
 (1648942618.962176)  can0  012   [8]  E8 03 10 00 00 00 00 00
 (1648942618.967646)  can0  014   [5]  00 00 00 10 27
 (1648942618.968457)  can0  1E5   [8]  1C 02 22 10 00 00 00 8C
 (1648942618.972182)  can0  012   [8]  E8 03 10 00 00 00 00 00
 (1648942618.974218)  can0  010   [4]  36 8B 09 00
 (1648942618.974425)  can0  005   [8]  01 00 00 00 00 00 00 00
 (1648942618.977601)  can0  014   [5]  00 00 00 16 27
 (1648942618.978479)  can0  1E5   [8]  1C 02 22 30 00 00 00 AC
 (1648942618.982230)  can0  012   [8]  E8 03 10 00 00 00 00 00
 (1648942618.982327)  can0  0E3   [2]  AB 01
 (1648942618.987831)  can0  014   [5]  00 00 00 0D 27
 (1648942618.988457)  can0  1E5   [8]  1C 02 22 50 00 00 00 CC
 (1648942618.992839)  can0  012   [8]  E8 03 10 00 00 00 00 00
 (1648942618.997665)  can0  014   [5]  00 00 00 0C 27
 (1648942618.998542)  can0  1E5   [8]  1C 02 22 70 00 00 00 EC
 (1648942619.002184)  can0  012   [8]  E8 03 10 00 00 00 00 00
 (1648942619.007656)  can0  014   [5]  00 00 00 11 27
 (1648942619.008513)  can0  1E5   [8]  1C 02 22 10 00 00 00 8C
 (1648942619.012245)  can0  012   [8]  E8 03 10 00 00 00 00 00
 (1648942619.017661)  can0  014   [5]  00 00 00 10 27
 (1648942619.018502)  can0  1E5   [8]  1C 02 22 30 00 00 00 AC
 (1648942619.022233)  can0  012   [8]  E8 03 10 00 00 00 00 00
 (1648942619.027669)  can0  014   [5]  00 00 00 10 27
 (1648942619.028532)  can0  1E5   [8]  1C 02 22 50 00 00 00 CC
 (1648942619.032224)  can0  012   [8]  E8 03 10 00 00 00 00 00
 (1648942619.037625)  can0  014   [5]  00 00 00 10 27
 (1648942619.038500)  can0  1E5   [8]  1C 02 22 70 00 00 00 EC
 (1648942619.042224)  can0  012   [8]  E8 03 10 00 00 00 00 00
 (1648942619.047661)  can0  014   [5]  00 00 00 10 27
 (1648942619.048520)  can0  1E5   [8]  1C 02 22 10 00 00 00 8C
 (1648942619.052236)  can0  012   [8]  E8 03 10 00 00 00 00 00
 (1648942619.057618)  can0  014   [5]  00 00 00 10 27
 (1648942619.058473)  can0  1E5   [8]  1C 02 22 30 00 00 00 AC
 (1648942619.062201)  can0  012   [8]  E8 03 10 00 00 00 00 00
 (1648942619.067640)  can0  014   [5]  00 00 00 10 27
 (1648942619.068479)  can0  1E5   [8]  1C 02 22 50 00 00 00 CC
 (1648942619.072230)  can0  012   [8]  E8 03 10 00 00 00 00 00
 (1648942619.074199)  can0  010   [4]  36 8B 09 00
 (1648942619.074440)  can0  005   [8]  01 00 00 00 00 00 00 00
 (1648942619.077627)  can0  014   [5]  00 00 00 17 27
 (1648942619.078487)  can0  1E5   [8]  1C 02 22 70 00 00 00 EC
 (1648942619.082187)  can0  012   [8]  E8 03 10 00 00 00 00 00
 (1648942619.087615)  can0  014   [5]  00 00 00 08 27
 (1648942619.088458)  can0  1E5   [8]  1C 02 22 10 00 00 00 8C
 (1648942619.092229)  can0  012   [8]  E8 03 10 00 00 00 00 00
 (1648942619.097624)  can0  014   [5]  00 00 00 11 27
 (1648942619.098467)  can0  1E5   [8]  1C 02 22 30 00 00 00 AC
 (1648942619.102218)  can0  012   [8]  E8 03 10 00 00 00 00 00
 (1648942619.107655)  can0  014   [5]  00 00 00 10 27
 (1648942619.108509)  can0  1E5   [8]  1C 02 22 50 00 00 00 CC
 (1648942619.112209)  can0  012   [8]  E8 03 10 00 00 00 00 00
 (1648942619.117668)  can0  014   [5]  00 00 00 10 27
 (1648942619.118512)  can0  1E5   [8]  1C 02 22 70 00 00 00 EC
 (1648942619.122186)  can0  012   [8]  E8 03 10 00 00 00 00 00
 (1648942619.127667)  can0  014   [5]  00 00 00 10 27
 (1648942619.128487)  can0  1E5   [8]  1C 02 22 10 00 00 00 8C
 (1648942619.132201)  can0  012   [8]  E8 03 10 00 00 00 00 00
 (1648942619.137662)  can0  014   [5]  00 00 00 10 27
 (1648942619.138506)  can0  1E5   [8]  1C 02 22 30 00 00 00 AC
 (1648942619.142232)  can0  012   [8]  E8 03 10 00 00 00 00 00
 (1648942619.147654)  can0  014   [5]  00 F0 FF 10 27
 (1648942619.148470)  can0  1E5   [8]  1C 02 22 50 00 00 00 CC
 (1648942619.152195)  can0  012   [8]  E8 03 10 00 00 00 00 00
 (1648942619.157613)  can0  014   [5]  00 00 00 10 27
 (1648942619.158533)  can0  1E5   [8]  1C 02 22 70 00 00 00 EC
 (1648942619.162214)  can0  012   [8]  E8 03 10 00 00 00 00 00
 (1648942619.167606)  can0  014   [5]  00 00 00 10 27
 (1648942619.168467)  can0  1E5   [8]  1C 02 22 10 00 00 00 8C
 (1648942619.172238)  can0  012   [8]  E8 03 10 00 00 00 00 00
 (1648942619.174214)  can0  010   [4]  36 8B 09 00
 (1648942619.174483)  can0  005   [8]  01 00 00 00 00 00 00 00
 (1648942619.174545)  can0  0E2   [2]  AB 01
 (1648942619.177633)  can0  014   [5]  00 00 00 1A 27
 (1648942619.177739)  can0  0E4   [2]  AB 01
 (1648942619.178500)  can0  1E5   [8]  1C 02 22 30 00 00 00 AC
 (1648942619.182254)  can0  012   [8]  E8 03 10 00 00 00 00 00
 (1648942619.187640)  can0  014   [5]  00 00 00 06 27
 (1648942619.188516)  can0  1E5   [8]  1C 02 22 50 00 00 00 CC
 (1648942619.192227)  can0  012   [8]  E8 03 10 00 00 00 00 00
 (1648942619.197678)  can0  014   [5]  FF 0F 00 10 27
 (1648942619.198573)  can0  1E5   [8]  1C 02 22 70 00 00 00 EC
 (1648942619.202251)  can0  012   [8]  E8 03 10 00 00 00 00 00
 (1648942619.207662)  can0  014   [5]  00 00 00 10 27
 (1648942619.208516)  can0  1E5   [8]  1C 02 22 10 00 00 00 8C
 (1648942619.212214)  can0  012   [8]  E8 03 10 00 00 00 00 00
 (1648942619.217634)  can0  014   [5]  00 00 00 10 27
 (1648942619.218476)  can0  1E5   [8]  1C 02 22 30 00 00 00 AC
 (1648942619.222242)  can0  012   [8]  E8 03 10 00 00 00 00 00
 (1648942619.227680)  can0  014   [5]  00 00 00 10 27
 (1648942619.228485)  can0  1E5   [8]  1C 02 22 50 00 00 00 CC
 (1648942619.232205)  can0  012   [8]  E8 03 10 00 00 00 00 00
 (1648942619.237644)  can0  014   [5]  00 00 00 10 27
 (1648942619.238518)  can0  1E5   [8]  1C 02 22 70 00 00 00 EC
 (1648942619.242248)  can0  012   [8]  E8 03 10 00 00 00 00 00
 (1648942619.247650)  can0  014   [5]  00 00 00 10 27
 (1648942619.248589)  can0  1E5   [8]  1C 02 22 10 00 00 00 8C
 (1648942619.252253)  can0  012   [8]  E8 03 10 00 00 00 00 00
 (1648942619.257665)  can0  014   [5]  00 00 00 10 27
 (1648942619.258519)  can0  1E5   [8]  1C 02 22 30 00 00 00 AC
 (1648942619.262220)  can0  012   [8]  E8 03 10 00 00 00 00 00
 (1648942619.267631)  can0  014   [5]  00 00 00 10 27
 (1648942619.268485)  can0  1E5   [8]  1C 02 22 50 00 00 00 CC
 (1648942619.272202)  can0  012   [8]  E8 03 10 00 00 00 00 00
 (1648942619.274150)  can0  010   [4]  36 8B 09 00
 (1648942619.274441)  can0  005   [8]  01 00 00 00 00 00 00 00
 (1648942619.277641)  can0  014   [5]  00 00 00 17 27
 (1648942619.278490)  can0  1E5   [8]  1C 02 22 70 00 00 00 EC
 (1648942619.282208)  can0  012   [8]  E8 03 10 00 00 00 00 00
 (1648942619.287672)  can0  014   [5]  00 00 00 08 27
 (1648942619.288532)  can0  1E5   [8]  1C 02 22 10 00 00 00 8C
 (1648942619.292255)  can0  012   [8]  E8 03 10 00 00 00 00 00
 (1648942619.297683)  can0  014   [5]  00 00 00 11 27
 (1648942619.298572)  can0  1E5   [8]  1C 02 22 30 00 00 00 AC
 (1648942619.302243)  can0  012   [8]  E8 03 10 00 00 00 00 00
 (1648942619.307667)  can0  014   [5]  00 00 00 10 27
 (1648942619.308480)  can0  1E5   [8]  1C 02 22 50 00 00 00 CC
 (1648942619.312230)  can0  012   [8]  E8 03 10 00 00 00 00 00
 (1648942619.317641)  can0  014   [5]  00 00 00 10 27
 (1648942619.318532)  can0  1E5   [8]  1C 02 22 70 00 00 00 EC
 (1648942619.322218)  can0  012   [8]  E8 03 10 00 00 00 00 00
 (1648942619.327640)  can0  014   [5]  00 00 00 10 27
 (1648942619.328493)  can0  1E5   [8]  1C 02 22 10 00 00 00 8C
 (1648942619.332207)  can0  012   [8]  E8 03 10 00 00 00 00 00
 (1648942619.337675)  can0  014   [5]  00 00 00 10 27
 (1648942619.338504)  can0  1E5   [8]  1C 02 22 30 00 00 00 AC
 (1648942619.342245)  can0  012   [8]  E8 03 10 00 00 00 00 00
 (1648942619.347688)  can0  014   [5]  00 00 00 10 27
 (1648942619.348516)  can0  1E5   [8]  1C 02 22 50 00 00 00 CC
 (1648942619.352232)  can0  012   [8]  E8 03 10 00 00 00 00 00
 (1648942619.357692)  can0  014   [5]  00 00 00 10 27
 (1648942619.358526)  can0  1E5   [8]  1C 02 22 70 00 00 00 EC
 (1648942619.362218)  can0  012   [8]  E8 03 10 00 00 00 00 00
 (1648942619.367669)  can0  014   [5]  00 00 00 10 27
 (1648942619.368492)  can0  1E5   [8]  1C 02 22 10 00 00 00 8C
 (1648942619.372208)  can0  012   [8]  E8 03 10 00 00 00 00 00
 (1648942619.374179)  can0  010   [4]  36 8B 09 00
 (1648942619.374431)  can0  005   [8]  01 00 00 00 00 00 00 00
 (1648942619.377640)  can0  014   [5]  00 00 00 16 27
 (1648942619.378504)  can0  1E5   [8]  1C 02 22 30 00 00 00 AC
 (1648942619.382262)  can0  012   [8]  E8 03 10 00 00 00 00 00
 (1648942619.387679)  can0  014   [5]  00 00 00 0A 27
 (1648942619.388497)  can0  1E5   [8]  1C 02 22 50 00 00 00 CC
 (1648942619.392236)  can0  012   [8]  E8 03 10 00 00 00 00 00
 (1648942619.397698)  can0  014   [5]  00 00 00 10 27
 (1648942619.398575)  can0  1E5   [8]  1C 02 22 70 00 00 00 EC
 (1648942619.402212)  can0  012   [8]  E8 03 10 00 00 00 00 00
 (1648942619.407680)  can0  014   [5]  00 00 00 10 27
 (1648942619.408509)  can0  1E5   [8]  1C 02 22 10 00 00 00 8C
 (1648942619.412230)  can0  012   [8]  E8 03 10 00 00 00 00 00
 (1648942619.417650)  can0  014   [5]  00 00 00 10 27
 (1648942619.418539)  can0  1E5   [8]  1C 02 22 30 00 00 00 AC
 (1648942619.422185)  can0  012   [8]  E8 03 10 00 00 00 00 00
 (1648942619.427628)  can0  014   [5]  00 00 00 10 27
 (1648942619.428498)  can0  1E5   [8]  1C 02 22 50 00 00 00 CC
 (1648942619.432237)  can0  012   [8]  E8 03 10 00 00 00 00 00
 (1648942619.437678)  can0  014   [5]  00 00 00 10 27
 (1648942619.438531)  can0  1E5   [8]  1C 02 22 70 00 00 00 EC
 (1648942619.442262)  can0  012   [8]  E8 03 10 00 00 00 00 00
 (1648942619.447623)  can0  014   [5]  00 00 00 10 27
 (1648942619.448545)  can0  1E5   [8]  1C 02 22 10 00 00 00 8C
 (1648942619.452238)  can0  012   [8]  E8 03 10 00 00 00 00 00
 (1648942619.457676)  can0  014   [5]  00 00 00 10 27
 (1648942619.458486)  can0  1E5   [8]  1C 02 22 30 00 00 00 AC
 (1648942619.462209)  can0  012   [8]  E8 03 10 00 00 00 00 00
 (1648942619.467627)  can0  014   [5]  00 00 00 10 27
 (1648942619.468504)  can0  1E5   [8]  1C 02 22 50 00 00 00 CC
 (1648942619.472215)  can0  012   [8]  E8 03 10 00 00 00 00 00
 (1648942619.474203)  can0  010   [4]  36 8B 09 00
 (1648942619.474439)  can0  005   [8]  01 00 00 00 00 00 00 00
 (1648942619.477696)  can0  014   [5]  00 00 00 16 27
 (1648942619.478503)  can0  1E5   [8]  1C 02 22 70 00 00 00 EC
 (1648942619.482244)  can0  012   [8]  E8 03 10 00 00 00 00 00
 (1648942619.487685)  can0  014   [5]  00 00 00 0A 27
 (1648942619.488541)  can0  1E5   [8]  1C 02 22 10 00 00 00 8C
 (1648942619.492495)  can0  012   [8]  E8 03 10 00 00 00 00 00
 (1648942619.497649)  can0  014   [5]  00 00 00 10 27
 (1648942619.498500)  can0  1E5   [8]  1C 02 22 30 00 00 00 AC
 (1648942619.502221)  can0  012   [8]  E8 03 10 00 00 00 00 00
 (1648942619.507634)  can0  014   [5]  00 00 00 10 27
 (1648942619.508533)  can0  1E5   [8]  1C 02 22 50 00 00 00 CC
 (1648942619.512284)  can0  012   [8]  E8 03 10 00 00 00 00 00
 (1648942619.517693)  can0  014   [5]  00 00 00 10 27
 (1648942619.518544)  can0  1E5   [8]  1C 02 22 70 00 00 00 EC
 (1648942619.522263)  can0  012   [8]  E8 03 10 00 00 00 00 00
 (1648942619.527633)  can0  014   [5]  00 00 00 10 27
 (1648942619.528509)  can0  1E5   [8]  1C 02 22 10 00 00 00 8C
 (1648942619.532243)  can0  012   [8]  E8 03 10 00 00 00 00 00
 (1648942619.538549)  can0  014   [5]  00 00 00 10 27
 (1648942619.538558)  can0  1E5   [8]  1C 02 22 30 00 00 00 AC
 (1648942619.542274)  can0  012   [8]  E8 03 10 00 00 00 00 00
 (1648942619.547673)  can0  014   [5]  00 00 00 10 27
 (1648942619.548525)  can0  1E5   [8]  1C 02 22 50 00 00 00 CC
 (1648942619.552221)  can0  012   [8]  E8 03 10 00 00 00 00 00
 (1648942619.557664)  can0  014   [5]  00 00 00 10 27
 (1648942619.558514)  can0  1E5   [8]  1C 02 22 70 00 00 00 EC
 (1648942619.562236)  can0  012   [8]  E8 03 10 00 00 00 00 00
 (1648942619.567674)  can0  014   [5]  00 00 00 10 27
 (1648942619.568520)  can0  1E5   [8]  1C 02 21 10 00 00 00 8B
 (1648942619.572260)  can0  012   [8]  E8 03 10 00 00 00 00 00
 (1648942619.574204)  can0  010   [4]  36 8B 09 00
 (1648942619.574441)  can0  005   [8]  01 00 00 00 00 00 00 00
 (1648942619.577641)  can0  014   [5]  00 00 00 17 27
 (1648942619.578510)  can0  1E5   [8]  1C 02 21 30 00 00 00 AB
 (1648942619.582261)  can0  012   [8]  E8 03 10 00 00 00 00 00
 (1648942619.587666)  can0  014   [5]  00 00 00 08 27
 (1648942619.588482)  can0  1E5   [8]  1C 02 21 50 00 00 00 CB
 (1648942619.592267)  can0  012   [8]  E8 03 10 00 00 00 00 00
 (1648942619.597704)  can0  014   [5]  00 00 00 11 27
 (1648942619.598629)  can0  1E5   [8]  1C 02 21 70 00 00 00 EB
 (1648942619.602242)  can0  012   [8]  E8 03 10 00 00 00 00 00
 (1648942619.607692)  can0  014   [5]  00 00 00 10 27
 (1648942619.608510)  can0  1E5   [8]  1C 02 21 10 00 00 00 8B
 (1648942619.612222)  can0  012   [8]  E8 03 10 00 00 00 00 00
 (1648942619.617690)  can0  014   [5]  00 00 00 10 27
 (1648942619.618483)  can0  1E5   [8]  1C 02 21 30 00 00 00 AB
 (1648942619.622239)  can0  012   [8]  E8 03 10 00 00 00 00 00
 (1648942619.627633)  can0  014   [5]  00 F0 FF 10 27
 (1648942619.628518)  can0  1E5   [8]  1C 02 21 50 00 00 00 CB
 (1648942619.632211)  can0  012   [8]  E8 03 10 00 00 00 00 00
 (1648942619.637691)  can0  014   [5]  00 00 00 10 27
 (1648942619.638525)  can0  1E5   [8]  1C 02 1F 7F FF 00 01 F7
 (1648942619.642264)  can0  012   [8]  E8 03 10 00 00 00 00 00
 (1648942619.647702)  can0  014   [5]  00 00 00 10 27
 (1648942619.648491)  can0  1E5   [8]  1C 02 1F 1F FF 00 01 97
 (1648942619.652236)  can0  012   [8]  E8 03 10 00 00 00 00 00
 (1648942619.657665)  can0  014   [5]  00 00 00 10 27
 (1648942619.658539)  can0  1E5   [8]  1C 02 1F 3F FF 00 01 B7
 (1648942619.662249)  can0  012   [8]  E8 03 10 00 00 00 00 00
 (1648942619.667628)  can0  014   [5]  00 00 00 10 27
 (1648942619.668538)  can0  1E5   [8]  1C 02 1D 5F FE 00 01 D4
 (1648942619.672267)  can0  012   [8]  E8 03 10 00 00 00 00 00
 (1648942619.674222)  can0  010   [4]  36 8B 09 00
 (1648942619.674476)  can0  005   [8]  01 00 00 00 00 00 00 00
 (1648942619.677702)  can0  014   [5]  00 00 00 16 27
 (1648942619.678488)  can0  1E5   [8]  1C 02 1F 70 00 00 00 E9
 (1648942619.682283)  can0  012   [8]  E8 03 10 00 00 00 00 00
 (1648942619.687703)  can0  014   [5]  00 00 00 0A 27
 (1648942619.688533)  can0  1E5   [8]  1C 02 1F 10 00 00 00 89
 (1648942619.692211)  can0  012   [8]  E8 03 10 00 00 00 00 00
 (1648942619.697673)  can0  014   [5]  00 00 00 10 27
 (1648942619.698615)  can0  1E5   [8]  1C 02 1F 30 00 00 00 A9
 (1648942619.702312)  can0  012   [8]  E8 03 10 00 00 00 00 00
 (1648942619.707680)  can0  014   [5]  00 00 00 10 27
 (1648942619.708536)  can0  1E5   [8]  1C 02 1F 50 00 00 00 C9
 (1648942619.712234)  can0  012   [8]  E8 03 10 00 00 00 00 00
 (1648942619.717711)  can0  014   [5]  00 00 00 10 27
 (1648942619.718545)  can0  1E5   [8]  1C 02 1F 70 00 00 00 E9
 (1648942619.722907)  can0  012   [8]  E8 03 10 00 00 00 00 00
 (1648942619.727666)  can0  014   [5]  00 00 00 10 27
 (1648942619.728486)  can0  1E5   [8]  1C 02 1F 10 00 00 00 89
 (1648942619.732277)  can0  012   [8]  E8 03 10 00 00 00 00 00
 (1648942619.737712)  can0  014   [5]  00 00 00 10 27
 (1648942619.738531)  can0  1E5   [8]  1C 02 1F 30 00 00 00 A9
 (1648942619.742289)  can0  012   [8]  E8 03 10 00 00 00 00 00
 (1648942619.747709)  can0  014   [5]  00 00 00 10 27
 (1648942619.748482)  can0  1E5   [8]  1C 02 1F 50 00 00 00 C9
 (1648942619.752272)  can0  012   [8]  E8 03 10 00 00 00 00 00
 (1648942619.757682)  can0  014   [5]  00 00 00 10 27
 (1648942619.758539)  can0  1E5   [8]  1C 02 1F 70 00 00 00 E9
 (1648942619.762262)  can0  012   [8]  E8 03 10 00 00 00 00 00
 (1648942619.767691)  can0  014   [5]  00 00 00 10 27
 (1648942619.768537)  can0  1E5   [8]  1C 02 1F 10 00 00 00 89
 (1648942619.772283)  can0  012   [8]  E8 03 10 00 00 00 00 00
 (1648942619.774182)  can0  010   [4]  36 8B 09 00
 (1648942619.774479)  can0  005   [8]  01 00 00 00 00 00 00 00
 (1648942619.777697)  can0  014   [5]  00 00 00 17 27
 (1648942619.778534)  can0  1E5   [8]  1C 02 1F 30 00 00 00 A9
 (1648942619.782290)  can0  012   [8]  E8 03 10 00 00 00 00 00
 (1648942619.787708)  can0  014   [5]  00 00 00 08 27
 (1648942619.788538)  can0  1E5   [8]  1C 02 1F 50 00 00 00 C9
 (1648942619.792295)  can0  012   [8]  E8 03 10 00 00 00 00 00
 (1648942619.797705)  can0  014   [5]  00 00 00 11 27
 (1648942619.798485)  can0  1E5   [8]  1C 02 1F 70 00 00 00 E9
 (1648942619.802249)  can0  012   [8]  E8 03 10 00 00 00 00 00
 (1648942619.807743)  can0  014   [5]  00 00 00 10 27
 (1648942619.808525)  can0  1E5   [8]  1C 02 1F 10 00 00 00 89
 (1648942619.812259)  can0  012   [8]  E8 03 10 00 00 00 00 00
 (1648942619.817705)  can0  014   [5]  00 00 00 10 27
 (1648942619.818542)  can0  1E5   [8]  1C 02 1F 30 00 00 00 A9
 (1648942619.822262)  can0  012   [8]  E8 03 10 00 00 00 00 00
 (1648942619.827727)  can0  014   [5]  00 00 00 10 27
 (1648942619.828535)  can0  1E5   [8]  1C 02 1F 50 00 00 00 C9
 (1648942619.832268)  can0  012   [8]  E8 03 10 00 00 00 00 00
 (1648942619.837678)  can0  014   [5]  00 00 00 10 27
 (1648942619.838539)  can0  1E5   [8]  1C 02 1F 70 00 00 00 E9
 (1648942619.842295)  can0  012   [8]  E8 03 10 00 00 00 00 00
 (1648942619.847689)  can0  014   [5]  00 00 00 10 27
 (1648942619.848547)  can0  1E5   [8]  1C 02 1F 10 00 00 00 89
 (1648942619.852263)  can0  012   [8]  E8 03 10 00 00 00 00 00
 (1648942619.857684)  can0  014   [5]  00 00 00 10 27
 (1648942619.858492)  can0  1E5   [8]  1C 02 1F 30 00 00 00 A9
 (1648942619.862246)  can0  012   [8]  E8 03 10 00 00 00 00 00
 (1648942619.867637)  can0  014   [5]  00 00 00 10 27
 (1648942619.868530)  can0  1E5   [8]  1C 02 1F 50 00 00 00 C9
 (1648942619.872263)  can0  012   [8]  E8 03 10 00 00 00 00 00
 (1648942619.874569)  can0  010   [4]  36 8B 09 00
 (1648942619.874579)  can0  005   [8]  01 00 00 00 00 00 00 00
 (1648942619.877720)  can0  014   [5]  00 00 00 16 27
 (1648942619.878499)  can0  1E5   [8]  1C 02 1F 70 00 00 00 E9
 (1648942619.882255)  can0  012   [8]  E8 03 10 00 00 00 00 00
 (1648942619.888534)  can0  014   [5]  00 00 00 0A 27
 (1648942619.888543)  can0  1E5   [8]  1C 02 1F 10 00 00 00 89
 (1648942619.892999)  can0  012   [8]  E8 03 10 00 00 00 00 00
 (1648942619.897652)  can0  014   [5]  00 00 00 10 27
 (1648942619.898502)  can0  1E5   [8]  1C 02 1C 30 00 00 00 A6
 (1648942619.902246)  can0  012   [8]  E8 03 10 00 00 00 00 00
 (1648942619.907693)  can0  014   [5]  FF 0F 00 10 27
 (1648942619.908547)  can0  1E5   [8]  1C 02 19 5F FE 00 01 D0
 (1648942619.912226)  can0  012   [8]  E8 03 10 00 00 00 00 00
 (1648942619.917696)  can0  014   [5]  00 00 00 10 27
 (1648942619.918556)  can0  1E5   [8]  1C 02 14 7F FB 00 01 E8
 (1648942619.922598)  can0  012   [8]  E8 03 10 00 00 00 00 00
 (1648942619.927702)  can0  014   [5]  00 00 00 10 27
 (1648942619.928578)  can0  1E5   [8]  1C 02 12 1F FA 00 01 85
 (1648942619.932326)  can0  012   [8]  E8 03 10 00 00 00 00 00
 (1648942619.937696)  can0  014   [5]  00 00 00 10 27
 (1648942619.938523)  can0  1E5   [8]  1C 02 11 3F F9 00 01 A3
 (1648942619.942262)  can0  012   [8]  E8 03 10 00 00 00 00 00
 (1648942619.947685)  can0  014   [5]  00 00 00 10 27
 (1648942619.948509)  can0  1E5   [8]  1C 02 11 5F F9 00 01 C3
 (1648942619.952275)  can0  012   [8]  E8 03 10 00 00 00 00 00
 (1648942619.957701)  can0  014   [5]  00 00 00 10 27
 (1648942619.958550)  can0  1E5   [8]  1C 02 12 70 00 00 00 DC
 (1648942619.962272)  can0  012   [8]  E8 03 10 00 00 00 00 00
 (1648942619.967695)  can0  014   [5]  00 00 00 10 27
 (1648942619.968552)  can0  1E5   [8]  1C 02 14 10 01 00 00 7F
 (1648942619.972274)  can0  012   [8]  E8 03 10 00 00 00 00 00
 (1648942619.974247)  can0  010   [4]  36 8B 09 00
 (1648942619.974487)  can0  005   [8]  01 00 00 00 00 00 00 00
 (1648942619.977723)  can0  014   [5]  FF 0F 00 1A 27
 (1648942619.978528)  can0  1E5   [8]  1C 02 17 30 03 00 00 A4
 (1648942619.982295)  can0  012   [8]  E8 03 10 00 00 00 00 00
 (1648942619.982361)  can0  0E3   [2]  D3 01
 (1648942619.987876)  can0  014   [5]  00 00 00 09 27
 (1648942619.988506)  can0  1E5   [8]  1C 02 19 50 04 00 00 C7
 (1648942619.993263)  can0  012   [8]  E8 03 10 00 00 00 00 00
 (1648942619.997694)  can0  014   [5]  00 00 00 0D 27
 (1648942619.998475)  can0  1E5   [8]  1C 02 1C 70 06 00 00 EC
 (1648942620.002263)  can0  012   [8]  E8 03 10 00 00 00 00 00
 (1648942620.007698)  can0  014   [5]  00 00 00 10 27
 (1648942620.008508)  can0  1E5   [8]  1C 02 1C 10 06 00 00 8C
 (1648942620.012277)  can0  012   [8]  E8 03 10 00 00 00 00 00
 (1648942620.017702)  can0  014   [5]  00 00 00 10 27
 (1648942620.018555)  can0  1E5   [8]  1C 02 1D 30 07 00 00 AE
 (1648942620.022274)  can0  012   [8]  E8 03 10 00 00 00 00 00
 (1648942620.027669)  can0  014   [5]  00 00 00 10 27
 (1648942620.028510)  can0  1E5   [8]  1C 02 1D 50 07 00 00 CE
 (1648942620.032220)  can0  012   [8]  E8 03 10 00 00 00 00 00
 (1648942620.038538)  can0  014   [5]  00 00 00 10 27
 (1648942620.038547)  can0  1E5   [8]  1C 02 1F 70 08 00 00 F1
 (1648942620.042629)  can0  012   [8]  E8 03 10 00 00 00 00 00
 (1648942620.047697)  can0  014   [5]  00 00 00 10 27
 (1648942620.048542)  can0  1E5   [8]  1C 02 1F 10 08 00 00 91
 (1648942620.052261)  can0  012   [8]  E8 03 10 00 00 00 00 00
 (1648942620.057706)  can0  014   [5]  00 00 00 10 27
 (1648942620.058548)  can0  1E5   [8]  1C 02 1F 30 08 00 00 B1
 (1648942620.062284)  can0  012   [8]  E8 03 10 00 00 00 00 00
 (1648942620.067700)  can0  014   [5]  00 00 00 10 27
 (1648942620.068547)  can0  1E5   [8]  1C 02 1F 50 07 00 00 D0
 (1648942620.072292)  can0  012   [8]  E8 03 10 00 00 00 00 00
 (1648942620.074252)  can0  010   [4]  36 8B 09 00
 (1648942620.074480)  can0  005   [8]  01 00 00 00 00 00 00 00
 (1648942620.077705)  can0  014   [5]  00 00 00 16 27
 (1648942620.078539)  can0  1E5   [8]  1C 02 1F 70 05 00 00 EE
 (1648942620.082334)  can0  012   [8]  E8 03 10 00 00 00 00 00
 (1648942620.087706)  can0  014   [5]  00 F0 FF 0A 27
 (1648942620.088565)  can0  1E5   [8]  1C 02 1F 10 04 00 00 8D
 (1648942620.092285)  can0  012   [8]  E8 03 10 00 00 00 00 00
 (1648942620.097712)  can0  014   [5]  00 00 00 10 27
 (1648942620.098619)  can0  1E5   [8]  1C 02 1F 30 02 00 00 AB
 (1648942620.102282)  can0  012   [8]  E8 03 10 00 00 00 00 00
 (1648942620.107661)  can0  014   [5]  00 00 00 10 27
 (1648942620.108510)  can0  1E5   [8]  1C 02 1F 50 02 00 00 CB
 (1648942620.112297)  can0  012   [8]  E8 03 10 00 00 00 00 00
 (1648942620.117661)  can0  014   [5]  00 00 00 10 27
 (1648942620.118505)  can0  1E5   [8]  1C 02 1F 70 01 00 00 EA
 (1648942620.122279)  can0  012   [8]  E8 03 10 00 00 00 00 00
 (1648942620.127696)  can0  014   [5]  00 00 00 10 27
 (1648942620.128547)  can0  1E5   [8]  1C 02 1F 10 01 00 00 8A
 (1648942620.132280)  can0  012   [8]  E8 03 10 00 00 00 00 00
 (1648942620.137712)  can0  014   [5]  00 00 00 10 27
 (1648942620.138494)  can0  1E5   [8]  1C 02 1F 30 00 00 00 A9
 (1648942620.142278)  can0  012   [8]  E8 03 10 00 00 00 00 00
 (1648942620.147719)  can0  014   [5]  00 00 00 10 27
 (1648942620.148540)  can0  1E5   [8]  1C 02 1F 50 00 00 00 C9
 (1648942620.152532)  can0  012   [8]  E8 03 10 00 00 00 00 00
 (1648942620.157653)  can0  014   [5]  00 00 00 10 27
 (1648942620.158556)  can0  1E5   [8]  1C 02 1F 70 00 00 00 E9
 (1648942620.162234)  can0  012   [8]  E8 03 10 00 00 00 00 00
 (1648942620.167999)  can0  014   [5]  00 00 00 10 27
 (1648942620.168797)  can0  1E5   [8]  1C 02 1F 10 00 00 00 89
 (1648942620.172230)  can0  012   [8]  E8 03 10 00 00 00 00 00
 (1648942620.174262)  can0  010   [4]  36 8B 09 00
 (1648942620.174532)  can0  005   [8]  01 00 00 00 00 00 00 00
 (1648942620.174598)  can0  0E2   [2]  D3 01
 (1648942620.177710)  can0  014   [5]  00 00 00 1A 27
 (1648942620.177859)  can0  0E4   [2]  D3 01
 (1648942620.178514)  can0  1E5   [8]  1C 02 1F 30 00 00 00 A9
 (1648942620.182286)  can0  012   [8]  E8 03 10 00 00 00 00 00
 (1648942620.187710)  can0  014   [5]  00 00 00 05 27
 (1648942620.188531)  can0  1E5   [8]  1C 02 1F 50 00 00 00 C9
 (1648942620.192317)  can0  012   [8]  E8 03 10 00 00 00 00 00
 (1648942620.197726)  can0  014   [5]  00 00 00 11 27
 (1648942620.198535)  can0  1E5   [8]  1C 02 1F 70 00 00 00 E9
 (1648942620.202294)  can0  012   [8]  E8 03 10 00 00 00 00 00
 (1648942620.208498)  can0  014   [5]  00 00 00 10 27
 (1648942620.208507)  can0  1E5   [8]  1C 02 1F 10 00 00 00 89
 (1648942620.212255)  can0  012   [8]  E8 03 10 00 00 00 00 00
 (1648942620.217712)  can0  014   [5]  00 00 00 10 27
 (1648942620.218517)  can0  1E5   [8]  1C 02 1F 30 00 00 00 A9
 (1648942620.222284)  can0  012   [8]  E8 03 10 00 00 00 00 00
 (1648942620.227722)  can0  014   [5]  00 00 00 10 27
 (1648942620.228528)  can0  1E5   [8]  1C 02 1F 50 00 00 00 C9
 (1648942620.232291)  can0  012   [8]  E8 03 10 00 00 00 00 00
 (1648942620.237669)  can0  014   [5]  00 00 00 10 27
 (1648942620.238508)  can0  1E5   [8]  1C 02 1F 70 00 00 00 E9
 (1648942620.242233)  can0  012   [8]  E8 03 10 00 00 00 00 00
 (1648942620.247673)  can0  014   [5]  00 00 00 10 27
 (1648942620.248518)  can0  1E5   [8]  1C 02 1F 10 00 00 00 89
 (1648942620.252317)  can0  012   [8]  E8 03 10 00 00 00 00 00
 (1648942620.257744)  can0  014   [5]  00 00 00 10 27
 (1648942620.258535)  can0  1E5   [8]  1C 02 1D 30 00 00 00 A7
 (1648942620.262258)  can0  012   [8]  E8 03 10 00 00 00 00 00
 (1648942620.267707)  can0  014   [5]  00 00 00 10 27
 (1648942620.268551)  can0  1E5   [8]  1C 02 1D 50 00 00 00 C7
 (1648942620.272239)  can0  012   [8]  E8 03 10 00 00 00 00 00
 (1648942620.274187)  can0  010   [4]  36 8B 09 00
 (1648942620.274467)  can0  005   [8]  01 00 00 00 00 00 00 00
 (1648942620.277696)  can0  014   [5]  00 00 00 16 27
 (1648942620.278533)  can0  1E5   [8]  1C 02 1D 70 00 00 00 E7
 (1648942620.282243)  can0  012   [8]  E8 03 10 00 00 00 00 00
 (1648942620.287713)  can0  014   [5]  00 00 00 0A 27
 (1648942620.288549)  can0  1E5   [8]  1C 02 1D 10 00 00 00 87
 (1648942620.292977)  can0  012   [8]  E8 03 10 00 00 00 00 00
 (1648942620.297717)  can0  014   [5]  00 00 00 10 27
 (1648942620.298538)  can0  1E5   [8]  1C 02 1D 30 00 00 00 A7
 (1648942620.302282)  can0  012   [8]  E8 03 10 00 00 00 00 00
 (1648942620.307754)  can0  014   [5]  00 00 00 10 27
 (1648942620.308538)  can0  1E5   [8]  1C 02 1D 50 00 00 00 C7
 (1648942620.312242)  can0  012   [8]  E8 03 10 00 00 00 00 00
 (1648942620.317675)  can0  014   [5]  00 00 00 10 27
 (1648942620.318525)  can0  1E5   [8]  1C 02 1C 7F FF 00 01 F4
 (1648942620.322247)  can0  012   [8]  E8 03 10 00 00 00 00 00
 (1648942620.327754)  can0  014   [5]  00 00 00 10 27
 (1648942620.328526)  can0  1E5   [8]  1C 02 1C 1F FF 00 01 94
 (1648942620.332288)  can0  012   [8]  E8 03 10 00 00 00 00 00
 (1648942620.338627)  can0  014   [5]  00 00 00 10 27
 (1648942620.338636)  can0  1E5   [8]  1C 02 1C 3F FF 00 01 B4
 (1648942620.342302)  can0  012   [8]  E8 03 10 00 00 00 00 00
 (1648942620.348429)  can0  014   [5]  00 00 00 10 27
 (1648942620.348579)  can0  1E5   [8]  1C 02 1C 5F FF 00 01 D4
 (1648942620.352772)  can0  012   [8]  E8 03 10 00 00 00 00 00
 (1648942620.357678)  can0  014   [5]  00 00 00 10 27
 (1648942620.358530)  can0  1E5   [8]  1C 02 1C 7F FF 00 01 F4
 (1648942620.362253)  can0  012   [8]  E8 03 10 00 00 00 00 00
 (1648942620.367725)  can0  014   [5]  00 00 00 10 27
 (1648942620.368500)  can0  1E5   [8]  1C 02 1C 1F FF 00 01 94
 (1648942620.372651)  can0  012   [8]  E8 03 10 00 00 00 00 00
 (1648942620.374963)  can0  010   [4]  36 8B 09 00
 (1648942620.374973)  can0  005   [8]  01 00 00 00 00 00 00 00
 (1648942620.377746)  can0  014   [5]  00 00 00 16 27
 (1648942620.378560)  can0  1E5   [8]  1C 02 1C 3F FF 00 01 B4
 (1648942620.382283)  can0  012   [8]  E8 03 10 00 00 00 00 00
 (1648942620.387729)  can0  014   [5]  FF 0F 00 0A 27
 (1648942620.388555)  can0  1E5   [8]  1C 02 1C 5F FF 00 01 D4
 (1648942620.392330)  can0  012   [8]  E8 03 10 00 00 00 00 00
 (1648942620.397757)  can0  014   [5]  00 00 00 10 27
 (1648942620.398577)  can0  1E5   [8]  1C 02 1C 7F FF 00 01 F4
 (1648942620.402299)  can0  012   [8]  E8 03 10 00 00 00 00 00
 (1648942620.407698)  can0  014   [5]  00 00 00 10 27
 (1648942620.408544)  can0  1E5   [8]  1C 02 1C 1F FF 00 01 94
 (1648942620.412290)  can0  012   [8]  E8 03 10 00 00 00 00 00
 (1648942620.417727)  can0  014   [5]  00 00 00 10 27
 (1648942620.418554)  can0  1E5   [8]  1C 02 1C 30 00 00 00 A6
 (1648942620.422252)  can0  012   [8]  E8 03 10 00 00 00 00 00
 (1648942620.427725)  can0  014   [5]  00 00 00 10 27
 (1648942620.428513)  can0  1E5   [8]  1C 02 1C 50 00 00 00 C6
 (1648942620.432250)  can0  012   [8]  E8 03 10 00 00 00 00 00
 (1648942620.437762)  can0  014   [5]  00 F0 FF 10 27
 (1648942620.438550)  can0  1E5   [8]  1C 02 1D 70 00 00 00 E7
 (1648942620.442292)  can0  012   [8]  E8 03 10 00 00 00 00 00
 (1648942620.447730)  can0  014   [5]  00 00 00 10 27
 (1648942620.448560)  can0  1E5   [8]  1C 02 1D 10 00 00 00 87
 (1648942620.452596)  can0  012   [8]  E8 03 10 00 00 00 00 00
 (1648942620.457687)  can0  014   [5]  00 00 00 10 27
 (1648942620.458568)  can0  1E5   [8]  1C 02 1F 30 01 00 00 AA
 (1648942620.462319)  can0  012   [8]  E8 03 10 00 00 00 00 00
 (1648942620.467727)  can0  014   [5]  FF 0F 00 10 27
 (1648942620.468549)  can0  1E5   [8]  1C 02 1F 50 01 00 00 CA
 (1648942620.472300)  can0  012   [8]  E8 03 10 00 00 00 00 00
 (1648942620.474282)  can0  010   [4]  36 8B 09 00
 (1648942620.474500)  can0  005   [8]  01 00 00 00 00 00 00 00
 (1648942620.477718)  can0  014   [5]  00 00 00 17 27
 (1648942620.478544)  can0  1E5   [8]  1C 02 1F 70 01 00 00 EA
 (1648942620.482263)  can0  012   [8]  E8 03 10 00 00 00 00 00
 (1648942620.487731)  can0  014   [5]  00 00 00 08 27
 (1648942620.488560)  can0  1E5   [8]  1C 02 1F 10 01 00 00 8A
 (1648942620.492353)  can0  012   [8]  E8 03 10 00 00 00 00 00
 (1648942620.497733)  can0  014   [5]  00 00 00 11 27
 (1648942620.498539)  can0  1E5   [8]  1C 02 21 30 02 00 00 AD
 (1648942620.502766)  can0  012   [8]  E8 03 10 00 00 00 00 00
 (1648942620.507728)  can0  014   [5]  00 00 00 10 27
 (1648942620.508557)  can0  1E5   [8]  1C 02 1F 50 00 00 00 C9
 (1648942620.512270)  can0  012   [8]  E8 03 10 00 00 00 00 00
 (1648942620.517734)  can0  014   [5]  00 00 00 10 27
 (1648942620.518565)  can0  1E5   [8]  1C 02 1F 70 00 00 00 E9
 (1648942620.522254)  can0  012   [8]  E8 03 10 00 00 00 00 00
 (1648942620.527685)  can0  014   [5]  00 00 00 10 27
 (1648942620.528509)  can0  1E5   [8]  1C 02 1F 10 00 00 00 89
 (1648942620.532268)  can0  012   [8]  E8 03 10 00 00 00 00 00
 (1648942620.538610)  can0  014   [5]  00 00 00 10 27
 (1648942620.538619)  can0  1E5   [8]  1C 02 1F 30 00 00 00 A9
 (1648942620.542549)  can0  012   [8]  E8 03 10 00 00 00 00 00
 (1648942620.547751)  can0  014   [5]  00 00 00 10 27
 (1648942620.548511)  can0  1E5   [8]  1C 02 1D 5F FF 00 01 D5
 (1648942620.552311)  can0  012   [8]  E8 03 10 00 00 00 00 00
 (1648942620.557868)  can0  014   [5]  00 00 00 10 27
 (1648942620.558524)  can0  1E5   [8]  1C 02 1D 7F FF 00 01 F5
 (1648942620.562276)  can0  012   [8]  E8 03 10 00 00 00 00 00
 (1648942620.567728)  can0  014   [5]  00 00 00 10 27
 (1648942620.568567)  can0  1E5   [8]  1C 02 1D 1F FF 00 01 95
 (1648942620.573039)  can0  012   [8]  E8 03 10 00 00 00 00 00
 (1648942620.574289)  can0  010   [4]  36 8B 09 00
 (1648942620.574548)  can0  005   [8]  01 00 00 00 00 00 00 00
 (1648942620.577699)  can0  014   [5]  00 00 00 16 27
 (1648942620.578528)  can0  1E5   [8]  1C 02 1C 3F FE 00 01 B3
 (1648942620.582308)  can0  012   [8]  E8 03 10 00 00 00 00 00
 (1648942620.587727)  can0  014   [5]  00 00 00 0A 27
 (1648942620.588553)  can0  1E5   [8]  1C 02 1D 50 00 00 00 C7
 (1648942620.592265)  can0  012   [8]  E8 03 10 00 00 00 00 00
 (1648942620.597737)  can0  014   [5]  00 00 00 10 27
 (1648942620.598561)  can0  1E5   [8]  1C 02 1C 70 00 00 00 E6
 (1648942620.603229)  can0  012   [8]  E8 03 10 00 00 00 00 00
 (1648942620.607748)  can0  014   [5]  00 00 00 10 27
 (1648942620.608563)  can0  1E5   [8]  1C 02 1C 10 00 00 00 86
 (1648942620.612269)  can0  012   [8]  E8 03 10 00 00 00 00 00
 (1648942620.617739)  can0  014   [5]  00 00 00 10 27
 (1648942620.618577)  can0  1E5   [8]  1C 02 1C 30 00 00 00 A6
 (1648942620.622262)  can0  012   [8]  E8 03 10 00 00 00 00 00
 (1648942620.627739)  can0  014   [5]  00 00 00 10 27
 (1648942620.628496)  can0  1E5   [8]  1C 02 1D 50 00 00 00 C7
 (1648942620.632350)  can0  012   [8]  E8 03 10 00 00 00 00 00
 (1648942620.638642)  can0  014   [5]  00 00 00 10 27
 (1648942620.638650)  can0  1E5   [8]  1C 02 1D 70 00 00 00 E7
 (1648942620.642532)  can0  012   [8]  E8 03 10 00 00 00 00 00
 (1648942620.647697)  can0  014   [5]  00 00 00 10 27
 (1648942620.648514)  can0  1E5   [8]  1C 02 1D 10 00 00 00 87
 (1648942620.652316)  can0  012   [8]  E8 03 10 00 00 00 00 00
 (1648942620.657758)  can0  014   [5]  00 00 00 10 27
 (1648942620.658576)  can0  1E5   [8]  1C 02 1D 30 00 00 00 A7
 (1648942620.662277)  can0  012   [8]  E8 03 10 00 00 00 00 00
 (1648942620.667699)  can0  014   [5]  00 00 00 10 27
 (1648942620.668573)  can0  1E5   [8]  1C 02 1D 50 00 00 00 C7
 (1648942620.672558)  can0  012   [8]  E8 03 10 00 00 00 00 00
 (1648942620.674268)  can0  010   [4]  36 8B 09 00
 (1648942620.674495)  can0  005   [8]  01 00 00 00 00 00 00 00
 (1648942620.677743)  can0  014   [5]  00 00 00 17 27
 (1648942620.678581)  can0  1E5   [8]  1C 02 1D 70 00 00 00 E7
 (1648942620.682368)  can0  012   [8]  E8 03 10 00 00 00 00 00
 (1648942620.687745)  can0  014   [5]  00 00 00 08 27
 (1648942620.688549)  can0  1E5   [8]  1C 02 1D 10 00 00 00 87
 (1648942620.692308)  can0  012   [8]  E8 03 10 00 00 00 00 00
 (1648942620.697743)  can0  014   [5]  00 00 00 11 27
 (1648942620.698581)  can0  1E5   [8]  1C 02 1D 30 00 00 00 A7
 (1648942620.702326)  can0  012   [8]  E8 03 10 00 00 00 00 00
 (1648942620.708569)  can0  014   [5]  00 00 00 10 27
 (1648942620.708578)  can0  1E5   [8]  1C 02 1D 50 00 00 00 C7
 (1648942620.712321)  can0  012   [8]  E8 03 10 00 00 00 00 00
 (1648942620.717737)  can0  014   [5]  00 00 00 10 27
 (1648942620.718577)  can0  1E5   [8]  1C 02 1F 70 01 00 00 EA
 (1648942620.722298)  can0  012   [8]  E8 03 10 00 00 00 00 00
 (1648942620.727758)  can0  014   [5]  00 00 00 10 27
 (1648942620.728541)  can0  1E5   [8]  1C 02 21 10 02 00 00 8D
 (1648942620.732340)  can0  012   [8]  E8 03 10 00 00 00 00 00
 (1648942620.737765)  can0  014   [5]  00 00 00 10 27
 (1648942620.738562)  can0  1E5   [8]  1C 02 22 30 03 00 00 AF
 (1648942620.742324)  can0  012   [8]  E8 03 10 00 00 00 00 00
 (1648942620.747756)  can0  014   [5]  00 00 00 10 27
 (1648942620.748555)  can0  1E5   [8]  1C 02 24 50 04 00 00 D2
 (1648942620.752323)  can0  012   [8]  E8 03 10 00 00 00 00 00
 (1648942620.758526)  can0  014   [5]  00 00 00 10 27
 (1648942620.758535)  can0  1E5   [8]  1C 02 24 70 04 00 00 F2
 (1648942620.762319)  can0  012   [8]  E8 03 10 00 00 00 00 00
 (1648942620.767698)  can0  014   [5]  00 00 00 10 27
 (1648942620.768548)  can0  1E5   [8]  1C 02 25 10 05 00 00 94
 (1648942620.772325)  can0  012   [8]  E8 03 10 00 00 00 00 00
 (1648942620.774274)  can0  010   [4]  36 8B 09 00
 (1648942620.774501)  can0  005   [8]  01 00 00 00 00 00 00 00
 (1648942620.777782)  can0  014   [5]  00 00 00 16 27
 (1648942620.778529)  can0  1E5   [8]  1C 02 27 30 06 00 00 B7
 (1648942620.782325)  can0  012   [8]  E8 03 10 00 00 00 00 00
 (1648942620.787724)  can0  014   [5]  00 00 00 0A 27
 (1648942620.788559)  can0  1E5   [8]  1C 02 29 50 07 00 00 DA
 (1648942620.792276)  can0  012   [8]  E8 03 10 00 00 00 00 00
 (1648942620.797742)  can0  014   [5]  00 00 00 10 27
 (1648942620.798579)  can0  1E5   [8]  1C 02 29 70 07 00 00 FA
 (1648942620.802302)  can0  012   [8]  E8 03 10 00 00 00 00 00
 (1648942620.808647)  can0  014   [5]  00 00 00 10 27
 (1648942620.808656)  can0  1E5   [8]  1C 02 2A 10 08 00 00 9C
 (1648942620.812299)  can0  012   [8]  E8 03 10 00 00 00 00 00
 (1648942620.817743)  can0  014   [5]  00 00 00 10 27
 (1648942620.818577)  can0  1E5   [8]  1C 02 2A 30 07 00 00 BB
 (1648942620.822339)  can0  012   [8]  E8 03 10 00 00 00 00 00
 (1648942620.827713)  can0  014   [5]  00 00 00 10 27
 (1648942620.828546)  can0  1E5   [8]  1C 02 2A 50 06 00 00 DA
 (1648942620.832353)  can0  012   [8]  E8 03 10 00 00 00 00 00
 (1648942620.837751)  can0  014   [5]  00 00 00 10 27
 (1648942620.838560)  can0  1E5   [8]  1C 02 2A 70 05 00 00 F9
 (1648942620.842335)  can0  012   [8]  E8 03 10 00 00 00 00 00
 (1648942620.847753)  can0  014   [5]  00 00 00 10 27
 (1648942620.848555)  can0  1E5   [8]  1C 02 29 10 00 00 00 93
 (1648942620.852331)  can0  012   [8]  E8 03 10 00 00 00 00 00
 (1648942620.857840)  can0  014   [5]  00 00 00 10 27
 (1648942620.858576)  can0  1E5   [8]  1C 02 27 3F FF 00 01 BF
 (1648942620.862285)  can0  012   [8]  E8 03 10 00 00 00 00 00
 (1648942620.867758)  can0  014   [5]  00 F0 FF 10 27
 (1648942620.868599)  can0  1E5   [8]  1C 02 25 5F FE 00 01 DC
 (1648942620.872257)  can0  012   [8]  E8 03 10 00 00 00 00 00
 (1648942620.875078)  can0  010   [4]  36 8B 09 00
 (1648942620.875086)  can0  005   [8]  01 00 00 00 00 00 00 00
 (1648942620.877718)  can0  014   [5]  00 00 00 16 27
 (1648942620.878557)  can0  1E5   [8]  1C 02 25 7F FE 00 01 FC
 (1648942620.882330)  can0  012   [8]  E8 03 10 00 00 00 00 00
 (1648942620.887756)  can0  014   [5]  FF 0F 00 0A 27
 (1648942620.888508)  can0  1E5   [8]  1C 02 24 1F FD 00 01 9A
 (1648942620.892252)  can0  012   [8]  E8 03 10 00 00 00 00 00
 (1648942620.897757)  can0  014   [5]  00 00 00 10 27
 (1648942620.898589)  can0  1E5   [8]  1C 02 22 3F FC 00 01 B7
 (1648942620.902343)  can0  012   [8]  E8 03 10 00 00 00 00 00
 (1648942620.907972)  can0  014   [5]  00 00 00 10 27
 (1648942620.908594)  can0  1E5   [8]  1C 02 22 5F FC 00 01 D7
 (1648942620.912287)  can0  012   [8]  E8 03 10 00 00 00 00 00
 (1648942620.917711)  can0  014   [5]  00 00 00 10 27
 (1648942620.918588)  can0  1E5   [8]  1C 02 21 7F FB 00 01 F5
 (1648942620.922298)  can0  012   [8]  E8 03 10 00 00 00 00 00
 (1648942620.927765)  can0  014   [5]  FF 0F 00 10 27
 (1648942620.928512)  can0  1E5   [8]  1C 02 21 1F FB 00 01 95
 (1648942620.932331)  can0  012   [8]  E8 03 10 00 00 00 00 00
 (1648942620.937733)  can0  014   [5]  00 00 00 10 27
 (1648942620.938558)  can0  1E5   [8]  1C 02 21 3F FB 00 01 B5
 (1648942620.942260)  can0  012   [8]  E8 03 10 00 00 00 00 00
 (1648942620.947764)  can0  014   [5]  00 00 00 10 27
 (1648942620.948525)  can0  1E5   [8]  1C 02 21 5F FB 00 01 D5
 (1648942620.952326)  can0  012   [8]  E8 03 10 00 00 00 00 00
 (1648942620.957770)  can0  014   [5]  00 F0 FF 10 27
 (1648942620.958561)  can0  1E5   [8]  1C 02 21 7F FC 00 01 F6
 (1648942620.962306)  can0  012   [8]  E8 03 10 00 00 00 00 00
 (1648942620.967717)  can0  014   [5]  00 00 00 10 27
 (1648942620.968565)  can0  1E5   [8]  1C 02 22 10 00 00 00 8C
 (1648942620.972288)  can0  012   [8]  E8 03 10 00 00 00 00 00
 (1648942620.974352)  can0  010   [4]  36 8B 09 00
 (1648942620.974507)  can0  005   [8]  01 00 00 00 00 00 00 00
 (1648942620.977765)  can0  014   [5]  00 00 00 17 27
 (1648942620.978577)  can0  1E5   [8]  1C 02 22 30 00 00 00 AC
 (1648942620.982293)  can0  012   [8]  E8 03 10 00 00 00 00 00
 (1648942620.982409)  can0  0E3   [2]  FB 01
 (1648942620.987767)  can0  014   [5]  00 00 00 0C 27
 (1648942620.988568)  can0  1E5   [8]  1C 02 22 50 00 00 00 CC
 (1648942620.993079)  can0  012   [8]  E8 03 10 00 00 00 00 00
 (1648942620.997771)  can0  014   [5]  00 00 00 0C 27
 (1648942620.998559)  can0  1E5   [8]  1C 02 22 70 00 00 00 EC
 (1648942621.002305)  can0  012   [8]  E8 03 10 00 00 00 00 00
 (1648942621.007769)  can0  014   [5]  00 00 00 11 27
 (1648942621.008559)  can0  1E5   [8]  1C 02 22 10 00 00 00 8C
 (1648942621.012272)  can0  012   [8]  E8 03 10 00 00 00 00 00
 (1648942621.017783)  can0  014   [5]  00 F0 FF 10 27
 (1648942621.018577)  can0  1E5   [8]  1C 02 24 30 01 00 00 AF
 (1648942621.022265)  can0  012   [8]  E8 03 10 00 00 00 00 00
 (1648942621.027724)  can0  014   [5]  00 00 00 10 27
 (1648942621.028538)  can0  1E5   [8]  1C 02 24 50 01 00 00 CF
 (1648942621.032370)  can0  012   [8]  E8 03 10 00 00 00 00 00
 (1648942621.037765)  can0  014   [5]  00 10 00 10 27
 (1648942621.038562)  can0  1E5   [8]  1C 02 24 70 01 00 00 EF
 (1648942621.042298)  can0  012   [8]  E8 03 10 00 00 00 00 00
 (1648942621.047778)  can0  014   [5]  00 00 00 10 27
 (1648942621.048520)  can0  1E5   [8]  1C 02 25 10 02 00 00 91
 (1648942621.052346)  can0  012   [8]  E8 03 10 00 00 00 00 00
 (1648942621.057768)  can0  014   [5]  00 00 00 10 27
 (1648942621.058530)  can0  1E5   [8]  1C 02 25 30 02 00 00 B1
 (1648942621.062292)  can0  012   [8]  E8 03 10 00 00 00 00 00
 (1648942621.067816)  can0  014   [5]  00 00 00 10 27
 (1648942621.068568)  can0  1E5   [8]  1C 02 25 50 02 00 00 D1
 (1648942621.072912)  can0  012   [8]  E8 03 10 00 00 00 00 00
 (1648942621.074256)  can0  010   [4]  36 8B 09 00
 (1648942621.074521)  can0  005   [8]  01 00 00 00 00 00 00 00
 (1648942621.077730)  can0  014   [5]  00 00 00 16 27
 (1648942621.078517)  can0  1E5   [8]  1C 02 27 70 03 00 00 F4
 (1648942621.082354)  can0  012   [8]  E8 03 10 00 00 00 00 00
 (1648942621.088584)  can0  014   [5]  00 00 00 0A 27
 (1648942621.088593)  can0  1E5   [8]  1C 02 25 10 00 00 00 8F
 (1648942621.093238)  can0  012   [8]  E8 03 10 00 00 00 00 00
 (1648942621.097767)  can0  014   [5]  00 00 00 10 27
 (1648942621.098561)  can0  1E5   [8]  1C 02 25 30 00 00 00 AF
 (1648942621.102268)  can0  012   [8]  E8 03 10 00 00 00 00 00
 (1648942621.107720)  can0  014   [5]  00 00 00 10 27
 (1648942621.108573)  can0  1E5   [8]  1C 02 25 50 00 00 00 CF
 (1648942621.112313)  can0  012   [8]  E8 03 10 00 00 00 00 00
 (1648942621.117718)  can0  014   [5]  00 00 00 10 27
 (1648942621.118573)  can0  1E5   [8]  1C 02 25 70 00 00 00 EF
 (1648942621.122271)  can0  012   [8]  E8 03 10 00 00 00 00 00
 (1648942621.127778)  can0  014   [5]  00 00 00 10 27
 (1648942621.128532)  can0  1E5   [8]  1C 02 25 10 00 00 00 8F
 (1648942621.132294)  can0  012   [8]  E8 03 10 00 00 00 00 00
 (1648942621.137732)  can0  014   [5]  00 00 00 10 27
 (1648942621.138573)  can0  1E5   [8]  1C 02 25 30 00 00 00 AF
 (1648942621.142358)  can0  012   [8]  E8 03 10 00 00 00 00 00
 (1648942621.147773)  can0  014   [5]  00 00 00 10 27
 (1648942621.148575)  can0  1E5   [8]  1C 02 25 50 00 00 00 CF
 (1648942621.152278)  can0  012   [8]  E8 03 10 00 00 00 00 00
 (1648942621.158060)  can0  014   [5]  00 00 00 10 27
 (1648942621.159226)  can0  1E5   [8]  1C 02 24 7F FF 00 01 FC
 (1648942621.162281)  can0  012   [8]  E8 03 10 00 00 00 00 00
 (1648942621.167778)  can0  014   [5]  00 00 00 10 27
 (1648942621.168920)  can0  1E5   [8]  1C 02 24 1F FF 00 01 9C
 (1648942621.172345)  can0  012   [8]  E8 03 10 00 00 00 00 00
 (1648942621.174249)  can0  010   [4]  36 8B 09 00
 (1648942621.174518)  can0  005   [8]  01 00 00 00 00 00 00 00
 (1648942621.174670)  can0  0E2   [2]  FB 01
 (1648942621.177723)  can0  014   [5]  00 00 00 1A 27
 (1648942621.177869)  can0  0E4   [2]  FB 01
 (1648942621.178525)  can0  1E5   [8]  1C 02 24 3F FF 00 01 BC
 (1648942621.182342)  can0  012   [8]  E8 03 10 00 00 00 00 00
 (1648942621.187767)  can0  014   [5]  00 00 00 06 27
 (1648942621.188579)  can0  1E5   [8]  1C 02 24 5F FF 00 01 DC
 (1648942621.192316)  can0  012   [8]  E8 03 10 00 00 00 00 00
 (1648942621.197744)  can0  014   [5]  00 00 00 10 27
 (1648942621.198525)  can0  1E5   [8]  1C 02 24 7F FF 00 01 FC
 (1648942621.202317)  can0  012   [8]  E8 03 10 00 00 00 00 00
 (1648942621.207768)  can0  014   [5]  00 00 00 10 27
 (1648942621.208581)  can0  1E5   [8]  1C 02 24 1F FF 00 01 9C
 (1648942621.212327)  can0  012   [8]  E8 03 10 00 00 00 00 00
 (1648942621.217757)  can0  014   [5]  00 00 00 10 27
 (1648942621.218569)  can0  1E5   [8]  1C 02 24 3F FF 00 01 BC
 (1648942621.222330)  can0  012   [8]  E8 03 10 00 00 00 00 00
 (1648942621.227779)  can0  014   [5]  00 00 00 10 27
 (1648942621.228549)  can0  1E5   [8]  1C 02 22 5F FE 00 01 D9
 (1648942621.232304)  can0  012   [8]  E8 03 10 00 00 00 00 00
 (1648942621.237694)  can0  014   [5]  00 00 00 10 27
 (1648942621.238577)  can0  1E5   [8]  1C 02 24 70 00 00 00 EE
 (1648942621.242321)  can0  012   [8]  E8 03 10 00 00 00 00 00
 (1648942621.247758)  can0  014   [5]  00 00 00 10 27
 (1648942621.248557)  can0  1E5   [8]  1C 02 22 10 00 00 00 8C
 (1648942621.252333)  can0  012   [8]  E8 03 10 00 00 00 00 00
 (1648942621.257757)  can0  014   [5]  00 00 00 10 27
 (1648942621.258571)  can0  1E5   [8]  1C 02 22 30 00 00 00 AC
 (1648942621.262289)  can0  012   [8]  E8 03 10 00 00 00 00 00
 (1648942621.267733)  can0  014   [5]  00 00 00 10 27
 (1648942621.268572)  can0  1E5   [8]  1C 02 24 50 00 00 00 CE
 (1648942621.272322)  can0  012   [8]  E8 03 10 00 00 00 00 00
 (1648942621.274306)  can0  010   [4]  36 8B 09 00
 (1648942621.274521)  can0  005   [8]  01 00 00 00 00 00 00 00
 (1648942621.277723)  can0  014   [5]  00 F0 FF 16 27
 (1648942621.278524)  can0  1E5   [8]  1C 02 24 70 00 00 00 EE
 (1648942621.282293)  can0  012   [8]  E8 03 10 00 00 00 00 00
 (1648942621.287749)  can0  014   [5]  00 00 00 09 27
 (1648942621.288575)  can0  1E5   [8]  1C 02 24 10 00 00 00 8E
 (1648942621.292307)  can0  012   [8]  E8 03 10 00 00 00 00 00
 (1648942621.297737)  can0  014   [5]  00 00 00 11 27
 (1648942621.298557)  can0  1E5   [8]  1C 02 24 30 00 00 00 AE
 (1648942621.302333)  can0  012   [8]  E8 03 10 00 00 00 00 00
 (1648942621.307736)  can0  014   [5]  00 00 00 10 27
 (1648942621.308558)  can0  1E5   [8]  1C 02 24 50 00 00 00 CE
 (1648942621.312309)  can0  012   [8]  E8 03 10 00 00 00 00 00
 (1648942621.317731)  can0  014   [5]  00 00 00 10 27
 (1648942621.318553)  can0  1E5   [8]  1C 02 24 70 00 00 00 EE
 (1648942621.322330)  can0  012   [8]  E8 03 10 00 00 00 00 00
 (1648942621.327706)  can0  014   [5]  00 00 00 10 27
 (1648942621.328535)  can0  1E5   [8]  1C 02 22 10 00 00 00 8C
 (1648942621.332327)  can0  012   [8]  E8 03 10 00 00 00 00 00
 (1648942621.337754)  can0  014   [5]  00 00 00 10 27
 (1648942621.338551)  can0  1E5   [8]  1C 02 22 30 00 00 00 AC
 (1648942621.342301)  can0  012   [8]  E8 03 10 00 00 00 00 00
 (1648942621.347727)  can0  014   [5]  00 00 00 10 27
 (1648942621.348553)  can0  1E5   [8]  1C 02 22 50 00 00 00 CC
 (1648942621.352267)  can0  012   [8]  E8 03 10 00 00 00 00 00
 (1648942621.357727)  can0  014   [5]  00 00 00 10 27
 (1648942621.358553)  can0  1E5   [8]  1C 02 24 70 00 00 00 EE
 (1648942621.362307)  can0  012   [8]  E8 03 10 00 00 00 00 00
 (1648942621.367740)  can0  014   [5]  00 00 00 10 27
 (1648942621.368516)  can0  1E5   [8]  1C 02 24 10 00 00 00 8E
 (1648942621.372268)  can0  012   [8]  E8 03 10 00 00 00 00 00
 (1648942621.374283)  can0  010   [4]  36 8B 09 00
 (1648942621.374550)  can0  005   [8]  01 00 00 00 00 00 00 00
 (1648942621.377721)  can0  014   [5]  00 00 00 17 27
 (1648942621.378554)  can0  1E5   [8]  1C 02 24 30 00 00 00 AE
 (1648942621.382300)  can0  012   [8]  E8 03 10 00 00 00 00 00
 (1648942621.387751)  can0  014   [5]  00 00 00 08 27
 (1648942621.388550)  can0  1E5   [8]  1C 02 24 50 00 00 00 CE
 (1648942621.392301)  can0  012   [8]  E8 03 10 00 00 00 00 00
 (1648942621.397758)  can0  014   [5]  00 00 00 11 27
 (1648942621.398557)  can0  1E5   [8]  1C 02 24 70 00 00 00 EE
 (1648942621.402270)  can0  012   [8]  E8 03 10 00 00 00 00 00
 (1648942621.407754)  can0  014   [5]  00 00 00 10 27
 (1648942621.408552)  can0  1E5   [8]  1C 02 24 10 00 00 00 8E
 (1648942621.412307)  can0  012   [8]  E8 03 10 00 00 00 00 00
 (1648942621.417768)  can0  014   [5]  00 00 00 10 27
 (1648942621.418499)  can0  1E5   [8]  1C 02 25 30 01 00 00 B0
 (1648942621.422273)  can0  012   [8]  E8 03 10 00 00 00 00 00
 (1648942621.427765)  can0  014   [5]  00 00 00 10 27
 (1648942621.428567)  can0  1E5   [8]  1C 02 27 50 02 00 00 D3
 (1648942621.432316)  can0  012   [8]  E8 03 10 00 00 00 00 00
 (1648942621.437743)  can0  014   [5]  00 00 00 10 27
 (1648942621.438566)  can0  1E5   [8]  1C 02 27 70 02 00 00 F3
 (1648942621.442315)  can0  012   [8]  E8 03 10 00 00 00 00 00
 (1648942621.447753)  can0  014   [5]  00 00 00 10 27
 (1648942621.448508)  can0  1E5   [8]  1C 02 29 10 03 00 00 96
 (1648942621.452317)  can0  012   [8]  E8 03 10 00 00 00 00 00
 (1648942621.457749)  can0  014   [5]  00 00 00 10 27
 (1648942621.458567)  can0  1E5   [8]  1C 02 2A 30 04 00 00 B8
 (1648942621.462319)  can0  012   [8]  E8 03 10 00 00 00 00 00
 (1648942621.467774)  can0  014   [5]  00 00 00 10 27
 (1648942621.468543)  can0  1E5   [8]  1C 02 2C 50 05 00 00 DB
 (1648942621.472278)  can0  012   [8]  E8 03 10 00 00 00 00 00
 (1648942621.474292)  can0  010   [4]  36 8B 09 00
 (1648942621.474572)  can0  005   [8]  01 00 00 00 00 00 00 00
 (1648942621.477731)  can0  014   [5]  00 00 00 16 27
 (1648942621.478544)  can0  1E5   [8]  1C 02 2C 70 05 00 00 FB
 (1648942621.482305)  can0  012   [8]  E8 03 10 00 00 00 00 00
 (1648942621.487744)  can0  014   [5]  00 00 00 0A 27
 (1648942621.488544)  can0  1E5   [8]  1C 02 2D 10 06 00 00 9D
 (1648942621.492332)  can0  012   [8]  E8 03 10 00 00 00 00 00
 (1648942621.497745)  can0  014   [5]  00 00 00 10 27
 (1648942621.498573)  can0  1E5   [8]  1C 02 2D 30 06 00 00 BD
 (1648942621.502278)  can0  012   [8]  E8 03 10 00 00 00 00 00
 (1648942621.507750)  can0  014   [5]  00 00 00 10 27
 (1648942621.508577)  can0  1E5   [8]  1C 02 2F 50 07 00 00 E0
 (1648942621.512313)  can0  012   [8]  E8 03 10 00 00 00 00 00
 (1648942621.517717)  can0  014   [5]  FF 0F 00 10 27
 (1648942621.518514)  can0  1E5   [8]  1C 02 2F 70 06 00 00 FF
 (1648942621.522290)  can0  012   [8]  E8 03 10 00 00 00 00 00
 (1648942621.527743)  can0  014   [5]  00 00 00 10 27
 (1648942621.528569)  can0  1E5   [8]  1C 02 2F 10 05 00 00 9E
 (1648942621.532326)  can0  012   [8]  E8 03 10 00 00 00 00 00
 (1648942621.537773)  can0  014   [5]  00 00 00 10 27
 (1648942621.538571)  can0  1E5   [8]  1C 02 2F 30 05 00 00 BE
 (1648942621.542402)  can0  012   [8]  E8 03 10 00 00 00 00 00
 (1648942621.547780)  can0  014   [5]  00 00 00 10 27
 (1648942621.548578)  can0  1E5   [8]  1C 02 2F 50 04 00 00 DD
 (1648942621.552301)  can0  012   [8]  E8 03 10 00 00 00 00 00
 (1648942621.557808)  can0  014   [5]  00 00 00 10 27
 (1648942621.558592)  can0  1E5   [8]  1C 02 31 70 04 00 00 FF
 (1648942621.562302)  can0  012   [8]  E8 03 10 00 00 00 00 00
 (1648942621.567736)  can0  014   [5]  00 00 00 10 27
 (1648942621.568552)  can0  1E5   [8]  1C 02 31 10 03 00 00 9E
 (1648942621.572316)  can0  012   [8]  E8 03 10 00 00 00 00 00
 (1648942621.574344)  can0  010   [4]  36 8B 09 00
 (1648942621.574596)  can0  005   [8]  01 00 00 00 00 00 00 00
 (1648942621.577726)  can0  014   [5]  00 00 00 17 27
 (1648942621.578552)  can0  1E5   [8]  1C 02 31 30 03 00 00 BE
 (1648942621.582299)  can0  012   [8]  E8 03 10 00 00 00 00 00
 (1648942621.587784)  can0  014   [5]  00 00 00 08 27
 (1648942621.588576)  can0  1E5   [8]  1C 02 2F 50 00 00 00 D9
 (1648942621.592656)  can0  012   [8]  E8 03 10 00 00 00 00 00
 (1648942621.597735)  can0  014   [5]  00 00 00 11 27
 (1648942621.598552)  can0  1E5   [8]  1C 02 2D 7F FF 00 02 05
 (1648942621.602356)  can0  012   [8]  E8 03 10 00 00 00 00 00
 (1648942621.607963)  can0  014   [5]  00 00 00 10 27
 (1648942621.608607)  can0  1E5   [8]  1C 02 2D 1F FF 00 01 A5
 (1648942621.612361)  can0  012   [8]  E8 03 10 00 00 00 00 00
 (1648942621.617784)  can0  014   [5]  00 00 00 10 27
 (1648942621.618538)  can0  1E5   [8]  1C 02 2C 3F FE 00 01 C3
 (1648942621.622351)  can0  012   [8]  E8 03 10 00 00 00 00 00
 (1648942621.627734)  can0  014   [5]  00 00 00 10 27
 (1648942621.628545)  can0  1E5   [8]  1C 02 2A 5F FD 00 01 E0
 (1648942621.632308)  can0  012   [8]  E8 03 10 00 00 00 00 00
 (1648942621.637781)  can0  014   [5]  00 00 00 10 27
 (1648942621.638600)  can0  1E5   [8]  1C 02 29 7F FC 00 01 FE
 (1648942621.642408)  can0  012   [8]  E8 03 10 00 00 00 00 00
 (1648942621.647789)  can0  014   [5]  00 00 00 10 27
 (1648942621.648580)  can0  1E5   [8]  1C 02 29 1F FC 00 01 9E
 (1648942621.652306)  can0  012   [8]  E8 03 10 00 00 00 00 00
 (1648942621.657787)  can0  014   [5]  00 00 00 10 27
 (1648942621.658590)  can0  1E5   [8]  1C 02 27 3F FB 00 01 BB
 (1648942621.662313)  can0  012   [8]  E8 03 10 00 00 00 00 00
 (1648942621.667939)  can0  014   [5]  00 00 00 10 27
 (1648942621.668538)  can0  1E5   [8]  1C 02 27 5F FB 00 01 DB
 (1648942621.672365)  can0  012   [8]  E8 03 10 00 00 00 00 00
 (1648942621.674339)  can0  010   [4]  36 8B 09 00
 (1648942621.674562)  can0  005   [8]  01 00 00 00 00 00 00 00
 (1648942621.677765)  can0  014   [5]  00 00 00 16 27
 (1648942621.678588)  can0  1E5   [8]  1C 02 25 7F FA 00 01 F8
 (1648942621.682306)  can0  012   [8]  E8 03 10 00 00 00 00 00
 (1648942621.687965)  can0  014   [5]  00 00 00 0A 27
 (1648942621.688547)  can0  1E5   [8]  1C 02 25 1F FA 00 01 98
 (1648942621.692443)  can0  012   [8]  E8 03 10 00 00 00 00 00
 (1648942621.697792)  can0  014   [5]  00 00 00 10 27
 (1648942621.698575)  can0  1E5   [8]  1C 02 25 3F FB 00 01 B9
 (1648942621.702363)  can0  012   [8]  E8 03 10 00 00 00 00 00
 (1648942621.707944)  can0  014   [5]  00 00 00 10 27
 (1648942621.708538)  can0  1E5   [8]  1C 02 24 5F FA 00 01 D7
 (1648942621.712368)  can0  012   [8]  E8 03 10 00 00 00 00 00
 (1648942621.717735)  can0  014   [5]  00 00 00 10 27
 (1648942621.718587)  can0  1E5   [8]  1C 02 24 7F FB 00 01 F8
 (1648942621.722352)  can0  012   [8]  E8 03 10 00 00 00 00 00
 (1648942621.727794)  can0  014   [5]  00 00 00 10 27
 (1648942621.728556)  can0  1E5   [8]  1C 02 24 1F FC 00 01 99
 (1648942621.732320)  can0  012   [8]  E8 03 10 00 00 00 00 00
 (1648942621.737789)  can0  014   [5]  00 00 00 10 27
 (1648942621.738595)  can0  1E5   [8]  1C 02 24 3F FD 00 01 BA
 (1648942621.742354)  can0  012   [8]  E8 03 10 00 00 00 00 00
 (1648942621.747788)  can0  014   [5]  00 00 00 10 27
 (1648942621.748545)  can0  1E5   [8]  1C 02 24 5F FD 00 01 DA
 (1648942621.752641)  can0  012   [8]  E8 03 10 00 00 00 00 00
 (1648942621.757795)  can0  014   [5]  00 00 00 10 27
 (1648942621.758593)  can0  1E5   [8]  1C 02 24 7F FE 00 01 FB
 (1648942621.762318)  can0  012   [8]  E8 03 10 00 00 00 00 00
 (1648942621.767798)  can0  014   [5]  00 00 00 10 27
 (1648942621.768572)  can0  1E5   [8]  1C 02 27 10 00 00 00 91
 (1648942621.772380)  can0  012   [8]  E8 03 10 00 00 00 00 00
 (1648942621.774330)  can0  010   [4]  36 8B 09 00
 (1648942621.774566)  can0  005   [8]  01 00 00 00 00 00 00 00
 (1648942621.777745)  can0  014   [5]  00 00 00 16 27
 (1648942621.778540)  can0  1E5   [8]  1C 02 27 30 00 00 00 B1
 (1648942621.782348)  can0  012   [8]  E8 03 10 00 00 00 00 00
 (1648942621.787746)  can0  014   [5]  00 00 00 0A 27
 (1648942621.788640)  can0  1E5   [8]  1C 02 2A 50 02 00 00 D6
 (1648942621.792400)  can0  012   [8]  E8 03 10 00 00 00 00 00
 (1648942621.797788)  can0  014   [5]  00 00 00 10 27
 (1648942621.798590)  can0  1E5   [8]  1C 02 2C 70 03 00 00 F9
 (1648942621.802318)  can0  012   [8]  E8 03 10 00 00 00 00 00
 (1648942621.807759)  can0  014   [5]  00 00 00 10 27
 (1648942621.808589)  can0  1E5   [8]  1C 02 2D 10 04 00 00 9B
 (1648942621.812370)  can0  012   [8]  E8 03 10 00 00 00 00 00
 (1648942621.817750)  can0  014   [5]  00 00 00 10 27
 (1648942621.818594)  can0  1E5   [8]  1C 02 2F 30 05 00 00 BE
 (1648942621.822459)  can0  012   [8]  E8 03 10 00 00 00 00 00
 (1648942621.827815)  can0  014   [5]  00 00 00 10 27
 (1648942621.828564)  can0  1E5   [8]  1C 02 31 50 06 00 00 E1
 (1648942621.832371)  can0  012   [8]  E8 03 10 00 00 00 00 00
 (1648942621.837795)  can0  014   [5]  00 00 00 10 27
 (1648942621.838593)  can0  1E5   [8]  1C 02 31 70 06 00 01 01
 (1648942621.842446)  can0  012   [8]  E8 03 10 00 00 00 00 00
 (1648942621.847795)  can0  014   [5]  00 00 00 10 27
 (1648942621.848540)  can0  1E5   [8]  1C 02 31 10 06 00 00 A1
 (1648942621.852321)  can0  012   [8]  E8 03 10 00 00 00 00 00
 (1648942621.857917)  can0  014   [5]  00 00 00 10 27
 (1648942621.858598)  can0  1E5   [8]  1C 02 32 30 07 00 00 C3
 (1648942621.862372)  can0  012   [8]  E8 03 10 00 00 00 00 00
 (1648942621.867802)  can0  014   [5]  00 00 00 10 27
 (1648942621.868597)  can0  1E5   [8]  1C 02 32 50 07 00 00 E3
 (1648942621.872362)  can0  012   [8]  E8 03 10 00 00 00 00 00
 (1648942621.874348)  can0  010   [4]  36 8B 09 00
 (1648942621.874634)  can0  005   [8]  01 00 00 00 00 00 00 00
 (1648942621.877752)  can0  014   [5]  00 00 00 17 27
 (1648942621.878608)  can0  1E5   [8]  1C 02 32 70 07 00 01 03
 (1648942621.882369)  can0  012   [8]  E8 03 10 00 00 00 00 00
 (1648942621.887798)  can0  014   [5]  00 00 00 08 27
 (1648942621.888522)  can0  1E5   [8]  1C 02 32 10 05 00 00 A1
 (1648942621.892450)  can0  012   [8]  E8 03 10 00 00 00 00 00
 (1648942621.897798)  can0  014   [5]  00 00 00 11 27
 (1648942621.898546)  can0  1E5   [8]  1C 02 32 30 04 00 00 C0
 (1648942621.902324)  can0  012   [8]  E8 03 10 00 00 00 00 00
 (1648942621.907798)  can0  014   [5]  00 00 00 10 27
 (1648942621.908601)  can0  1E5   [8]  1C 02 31 50 00 00 00 DB
 (1648942621.912322)  can0  012   [8]  E8 03 10 00 00 00 00 00
 (1648942621.917795)  can0  014   [5]  00 00 00 10 27
 (1648942621.918590)  can0  1E5   [8]  1C 02 32 70 00 00 00 FC
 (1648942621.922389)  can0  012   [8]  E8 03 10 00 00 00 00 00
 (1648942621.927791)  can0  014   [5]  00 00 00 10 27
 (1648942621.928602)  can0  1E5   [8]  1C 02 31 10 00 00 00 9B
 (1648942621.932320)  can0  012   [8]  E8 03 10 00 00 00 00 00
 (1648942621.937803)  can0  014   [5]  00 00 00 10 27
 (1648942621.938552)  can0  1E5   [8]  1C 02 31 30 00 00 00 BB
 (1648942621.942451)  can0  012   [8]  E8 03 10 00 00 00 00 00
 (1648942621.947802)  can0  014   [5]  00 00 00 10 27
 (1648942621.948608)  can0  1E5   [8]  1C 02 31 50 00 00 00 DB
 (1648942621.952328)  can0  012   [8]  E8 03 10 00 00 00 00 00
 (1648942621.957813)  can0  014   [5]  00 00 00 10 27
 (1648942621.958598)  can0  1E5   [8]  1C 02 31 70 00 00 00 FB
 (1648942621.962377)  can0  012   [8]  E8 03 10 00 00 00 00 00
 (1648942621.967796)  can0  014   [5]  00 00 00 10 27
 (1648942621.968603)  can0  1E5   [8]  1C 02 31 10 00 00 00 9B
 (1648942621.972330)  can0  012   [8]  E8 03 10 00 00 00 00 00
 (1648942621.974388)  can0  010   [4]  36 8B 09 00
 (1648942621.974588)  can0  005   [8]  01 00 00 00 00 00 00 00
 (1648942621.977752)  can0  014   [5]  00 00 00 16 27
 (1648942621.978553)  can0  1E5   [8]  1C 02 31 30 00 00 00 BB
 (1648942621.982337)  can0  012   [8]  E8 03 10 00 00 00 00 00
 (1648942621.982444)  can0  0E3   [2]  23 02
 (1648942621.987815)  can0  014   [5]  00 00 00 0D 27
 (1648942621.988530)  can0  1E5   [8]  1C 02 31 50 00 00 00 DB
 (1648942621.992372)  can0  012   [8]  E8 03 10 00 00 00 00 00
 (1648942621.997806)  can0  014   [5]  00 00 00 0C 27
 (1648942621.998530)  can0  1E5   [8]  1C 02 31 70 00 00 00 FB
 (1648942622.002381)  can0  012   [8]  E8 03 10 00 00 00 00 00
 (1648942622.007839)  can0  014   [5]  00 00 00 11 27
 (1648942622.008576)  can0  1E5   [8]  1C 02 31 10 00 00 00 9B
 (1648942622.012376)  can0  012   [8]  E8 03 10 00 00 00 00 00
 (1648942622.017794)  can0  014   [5]  00 00 00 10 27
 (1648942622.018599)  can0  1E5   [8]  1C 02 31 30 00 00 00 BB
 (1648942622.022338)  can0  012   [8]  E8 03 10 00 00 00 00 00
 (1648942622.027807)  can0  014   [5]  00 00 00 10 27
 (1648942622.028554)  can0  1E5   [8]  1C 02 32 50 00 00 00 DC
 (1648942622.032311)  can0  012   [8]  E8 03 10 00 00 00 00 00
 (1648942622.037809)  can0  014   [5]  00 00 00 10 27
 (1648942622.038607)  can0  1E5   [8]  1C 02 32 70 00 00 00 FC
 (1648942622.042672)  can0  012   [8]  E8 03 10 00 00 00 00 00
 (1648942622.047763)  can0  014   [5]  00 00 00 10 27
 (1648942622.048595)  can0  1E5   [8]  1C 02 32 10 00 00 00 9C
 (1648942622.052394)  can0  012   [8]  E8 03 10 00 00 00 00 00
 (1648942622.057823)  can0  014   [5]  00 00 00 10 27
 (1648942622.058627)  can0  1E5   [8]  1C 02 32 30 00 00 00 BC
 (1648942622.062339)  can0  012   [8]  E8 03 10 00 00 00 00 00
 (1648942622.067818)  can0  014   [5]  00 00 00 10 27
 (1648942622.068610)  can0  1E5   [8]  1C 02 32 50 00 00 00 DC
 (1648942622.072376)  can0  012   [8]  E8 03 10 00 00 00 00 00
 (1648942622.075025)  can0  010   [4]  36 8B 09 00
 (1648942622.075034)  can0  005   [8]  01 00 00 00 00 00 00 00
 (1648942622.077770)  can0  014   [5]  00 00 00 17 27
 (1648942622.078559)  can0  1E5   [8]  1C 02 32 70 00 00 00 FC
 (1648942622.082387)  can0  012   [8]  E8 03 10 00 00 00 00 00
 (1648942622.087803)  can0  014   [5]  00 00 00 08 27
 (1648942622.088589)  can0  1E5   [8]  1C 02 32 10 00 00 00 9C
 (1648942622.092381)  can0  012   [8]  E8 03 10 00 00 00 00 00
 (1648942622.097807)  can0  014   [5]  00 00 00 11 27
 (1648942622.098573)  can0  1E5   [8]  1C 02 32 30 00 00 00 BC
 (1648942622.102377)  can0  012   [8]  E8 03 10 00 00 00 00 00
 (1648942622.107814)  can0  014   [5]  00 00 00 10 27
 (1648942622.108587)  can0  1E5   [8]  1C 02 32 50 00 00 00 DC
 (1648942622.112365)  can0  012   [8]  E8 03 10 00 00 00 00 00
 (1648942622.117811)  can0  014   [5]  00 00 00 10 27
 (1648942622.118587)  can0  1E5   [8]  1C 02 32 70 00 00 00 FC
 (1648942622.122391)  can0  012   [8]  E8 03 10 00 00 00 00 00
 (1648942622.127822)  can0  014   [5]  00 00 00 10 27
 (1648942622.128559)  can0  1E5   [8]  1C 02 32 10 00 00 00 9C
 (1648942622.132349)  can0  012   [8]  E8 03 10 00 00 00 00 00
 (1648942622.137766)  can0  014   [5]  00 F0 FF 10 27
 (1648942622.138534)  can0  1E5   [8]  1C 02 32 30 00 00 00 BC
 (1648942622.142317)  can0  012   [8]  E8 03 10 00 00 00 00 00
 (1648942622.147777)  can0  014   [5]  00 00 00 10 27
 (1648942622.148561)  can0  1E5   [8]  1C 02 32 50 00 00 00 DC
 (1648942622.152367)  can0  012   [8]  E8 03 10 00 00 00 00 00
 (1648942622.157817)  can0  014   [5]  00 00 00 10 27
 (1648942622.158607)  can0  1E5   [8]  1C 02 32 70 00 00 00 FC
 (1648942622.162389)  can0  012   [8]  E8 03 10 00 00 00 00 00
 (1648942622.167819)  can0  014   [5]  00 00 00 10 27
 (1648942622.168592)  can0  1E5   [8]  1C 02 32 10 00 00 00 9C
 (1648942622.172347)  can0  012   [8]  E8 03 10 00 00 00 00 00
 (1648942622.174366)  can0  010   [4]  36 8B 09 00
 (1648942622.174589)  can0  005   [8]  01 00 00 00 00 00 00 00
 (1648942622.174706)  can0  0E2   [2]  23 02
 (1648942622.177843)  can0  014   [5]  00 00 00 1A 27
 (1648942622.177942)  can0  0E4   [2]  23 02
 (1648942622.178537)  can0  1E5   [8]  1C 02 32 30 00 00 00 BC
 (1648942622.182340)  can0  012   [8]  E8 03 10 00 00 00 00 00
 (1648942622.187824)  can0  014   [5]  00 00 00 05 27
 (1648942622.188574)  can0  1E5   [8]  1C 02 31 50 00 00 00 DB
 (1648942622.192383)  can0  012   [8]  E8 03 10 00 00 00 00 00
 (1648942622.197813)  can0  014   [5]  00 00 00 11 27
 (1648942622.198544)  can0  1E5   [8]  1C 02 31 70 00 00 00 FB
 (1648942622.202322)  can0  012   [8]  E8 03 10 00 00 00 00 00
 (1648942622.207820)  can0  014   [5]  00 00 00 10 27
 (1648942622.208594)  can0  1E5   [8]  1C 02 2F 1F FF 00 01 A7
 (1648942622.212360)  can0  012   [8]  E8 03 10 00 00 00 00 00
 (1648942622.217827)  can0  014   [5]  00 00 00 10 27
 (1648942622.218569)  can0  1E5   [8]  1C 02 2F 3F FF 00 01 C7
 (1648942622.222315)  can0  012   [8]  E8 03 10 00 00 00 00 00
 (1648942622.227810)  can0  014   [5]  00 00 00 10 27
 (1648942622.228567)  can0  1E5   [8]  1C 02 2D 5F FE 00 01 E4
 (1648942622.232359)  can0  012   [8]  E8 03 10 00 00 00 00 00
 (1648942622.237813)  can0  014   [5]  00 00 00 10 27
 (1648942622.238589)  can0  1E5   [8]  1C 02 2D 7F FE 00 02 04
 (1648942622.242382)  can0  012   [8]  E8 03 10 00 00 00 00 00
 (1648942622.247828)  can0  014   [5]  00 00 00 10 27
 (1648942622.248610)  can0  1E5   [8]  1C 02 2C 1F FD 00 01 A2
 (1648942622.252427)  can0  012   [8]  E8 03 10 00 00 00 00 00
 (1648942622.257813)  can0  014   [5]  00 00 00 10 27
 (1648942622.258549)  can0  1E5   [8]  1C 02 2D 30 00 00 00 B7
 (1648942622.262359)  can0  012   [8]  E8 03 10 00 00 00 00 00
 (1648942622.268655)  can0  014   [5]  00 00 00 10 27
 (1648942622.268664)  can0  1E5   [8]  1C 02 2D 50 00 00 00 D7
 (1648942622.272352)  can0  012   [8]  E8 03 10 00 00 00 00 00
 (1648942622.275342)  can0  010   [4]  36 8B 09 00
 (1648942622.275351)  can0  005   [8]  01 00 00 00 00 00 00 00
 (1648942622.277776)  can0  014   [5]  00 00 00 17 27
 (1648942622.278595)  can0  1E5   [8]  1C 02 2D 70 00 00 00 F7
 (1648942622.282348)  can0  012   [8]  E8 03 10 00 00 00 00 00
 (1648942622.288204)  can0  014   [5]  00 00 00 08 27
 (1648942622.288575)  can0  1E5   [8]  1C 02 2D 10 00 00 00 97
 (1648942622.292377)  can0  012   [8]  E8 03 10 00 00 00 00 00
 (1648942622.298330)  can0  014   [5]  00 00 00 11 27
 (1648942622.298544)  can0  1E5   [8]  1C 02 2F 30 01 00 00 BA
 (1648942622.302404)  can0  012   [8]  E8 03 10 00 00 00 00 00
 (1648942622.307838)  can0  014   [5]  00 00 00 10 27
 (1648942622.308548)  can0  1E5   [8]  1C 02 31 50 02 00 00 DD
 (1648942622.312377)  can0  012   [8]  E8 03 10 00 00 00 00 00
 (1648942622.317834)  can0  014   [5]  00 00 00 10 27
 (1648942622.318593)  can0  1E5   [8]  1C 02 31 70 02 00 00 FD
 (1648942622.322382)  can0  012   [8]  E8 03 10 00 00 00 00 00
 (1648942622.327783)  can0  014   [5]  00 00 00 10 27
 (1648942622.328562)  can0  1E5   [8]  1C 02 31 10 02 00 00 9D
 (1648942622.332333)  can0  012   [8]  E8 03 10 00 00 00 00 00
 (1648942622.337828)  can0  014   [5]  00 00 00 10 27
 (1648942622.338573)  can0  1E5   [8]  1C 02 31 30 02 00 00 BD
 (1648942622.342751)  can0  012   [8]  E8 03 10 00 00 00 00 00
 (1648942622.347831)  can0  014   [5]  00 00 00 10 27
 (1648942622.348605)  can0  1E5   [8]  1C 02 31 50 02 00 00 DD
 (1648942622.352380)  can0  012   [8]  E8 03 10 00 00 00 00 00
 (1648942622.358497)  can0  014   [5]  FF 0F 00 10 27
 (1648942622.358568)  can0  1E5   [8]  1C 02 31 70 02 00 00 FD
 (1648942622.362390)  can0  012   [8]  E8 03 10 00 00 00 00 00
 (1648942622.367821)  can0  014   [5]  00 00 00 10 27
 (1648942622.368560)  can0  1E5   [8]  1C 02 31 10 02 00 00 9D
 (1648942622.372382)  can0  012   [8]  E8 03 10 00 00 00 00 00
 (1648942622.374380)  can0  010   [4]  36 8B 09 00
 (1648942622.374595)  can0  005   [8]  01 00 00 00 00 00 00 00
 (1648942622.377821)  can0  014   [5]  00 00 00 16 27
 (1648942622.378561)  can0  1E5   [8]  1C 02 2F 30 00 00 00 B9
 (1648942622.382389)  can0  012   [8]  E8 03 10 00 00 00 00 00
 (1648942622.387831)  can0  014   [5]  00 00 00 0A 27
 (1648942622.388558)  can0  1E5   [8]  1C 02 2D 5F FF 00 01 E5
 (1648942622.393185)  can0  012   [8]  E8 03 10 00 00 00 00 00
 (1648942622.397782)  can0  014   [5]  00 00 00 10 27
 (1648942622.398552)  can0  1E5   [8]  1C 02 2C 7F FE 00 02 03
 (1648942622.402412)  can0  012   [8]  E8 03 10 00 00 00 00 00
 (1648942622.407839)  can0  014   [5]  00 00 00 10 27
 (1648942622.408565)  can0  1E5   [8]  1C 02 2A 1F FD 00 01 A0
 (1648942622.412386)  can0  012   [8]  E8 03 10 00 00 00 00 00
 (1648942622.417790)  can0  014   [5]  00 00 00 10 27
 (1648942622.418600)  can0  1E5   [8]  1C 02 29 3F FC 00 01 BE
 (1648942622.422416)  can0  012   [8]  E8 03 10 00 00 00 00 00
 (1648942622.427825)  can0  014   [5]  FF 0F 00 10 27
 (1648942622.428561)  can0  1E5   [8]  1C 02 29 5F FC 00 01 DE
 (1648942622.432331)  can0  012   [8]  E8 03 10 00 00 00 00 00
 (1648942622.437844)  can0  014   [5]  00 00 00 10 27
 (1648942622.438609)  can0  1E5   [8]  1C 02 29 7F FC 00 01 FE
 (1648942622.443073)  can0  012   [8]  E8 03 10 00 00 00 00 00
 (1648942622.447803)  can0  014   [5]  00 00 00 10 27
 (1648942622.448610)  can0  1E5   [8]  1C 02 29 1F FC 00 01 9E
 (1648942622.452367)  can0  012   [8]  E8 03 10 00 00 00 00 00
 (1648942622.457811)  can0  014   [5]  00 00 00 10 27
 (1648942622.458605)  can0  1E5   [8]  1C 02 29 3F FC 00 01 BE
 (1648942622.462376)  can0  012   [8]  E8 03 10 00 00 00 00 00
 (1648942622.467808)  can0  014   [5]  00 00 00 10 27
 (1648942622.468560)  can0  1E5   [8]  1C 02 29 5F FC 00 01 DE
 (1648942622.472336)  can0  012   [8]  E8 03 10 00 00 00 00 00
 (1648942622.474308)  can0  010   [4]  36 8B 09 00
 (1648942622.474601)  can0  005   [8]  01 00 00 00 00 00 00 00
 (1648942622.477798)  can0  014   [5]  00 00 00 17 27
 (1648942622.478567)  can0  1E5   [8]  1C 02 2A 70 00 00 00 F4
 (1648942622.482414)  can0  012   [8]  E8 03 10 00 00 00 00 00
 (1648942622.488690)  can0  014   [5]  00 00 00 08 27
 (1648942622.488699)  can0  1E5   [8]  1C 02 2A 10 00 00 00 94
 (1648942622.492757)  can0  012   [8]  E8 03 10 00 00 00 00 00
 (1648942622.497797)  can0  014   [5]  00 00 00 11 27
 (1648942622.498565)  can0  1E5   [8]  1C 02 2A 30 00 00 00 B4
 (1648942622.502338)  can0  012   [8]  E8 03 10 00 00 00 00 00
 (1648942622.507838)  can0  014   [5]  00 00 00 10 27
 (1648942622.508647)  can0  1E5   [8]  1C 02 2C 50 01 00 00 D7
 (1648942622.512348)  can0  012   [8]  E8 03 10 00 00 00 00 00
 (1648942622.517846)  can0  014   [5]  00 00 00 10 27
 (1648942622.518619)  can0  1E5   [8]  1C 02 2C 70 01 00 00 F7
 (1648942622.522404)  can0  012   [8]  E8 03 10 00 00 00 00 00
 (1648942622.527771)  can0  014   [5]  00 00 00 10 27
 (1648942622.528570)  can0  1E5   [8]  1C 02 2C 10 01 00 00 97
 (1648942622.532363)  can0  012   [8]  E8 03 10 00 00 00 00 00
 (1648942622.537940)  can0  014   [5]  00 00 00 10 27
 (1648942622.538597)  can0  1E5   [8]  1C 02 2C 30 01 00 00 B7
 (1648942622.542343)  can0  012   [8]  E8 03 10 00 00 00 00 00
 (1648942622.547841)  can0  014   [5]  00 00 00 10 27
 (1648942622.548616)  can0  1E5   [8]  1C 02 2C 50 01 00 00 D7
 (1648942622.552394)  can0  012   [8]  E8 03 10 00 00 00 00 00
 (1648942622.558592)  can0  014   [5]  00 00 00 10 27
 (1648942622.558600)  can0  1E5   [8]  1C 02 2C 70 01 00 00 F7
 (1648942622.562359)  can0  012   [8]  E8 03 10 00 00 00 00 00
 (1648942622.567829)  can0  014   [5]  00 00 00 10 27
 (1648942622.568640)  can0  1E5   [8]  1C 02 2C 10 01 00 00 97
 (1648942622.572393)  can0  012   [8]  E8 03 10 00 00 00 00 00
 (1648942622.574353)  can0  010   [4]  36 8B 09 00
 (1648942622.574598)  can0  005   [8]  01 00 00 00 00 00 00 00
 (1648942622.577806)  can0  014   [5]  00 00 00 16 27
 (1648942622.578579)  can0  1E5   [8]  1C 02 2C 30 01 00 00 B7
 (1648942622.582380)  can0  012   [8]  E8 03 10 00 00 00 00 00
 (1648942622.587823)  can0  014   [5]  00 00 00 0A 27
 (1648942622.588579)  can0  1E5   [8]  1C 02 2C 50 01 00 00 D7
 (1648942622.592388)  can0  012   [8]  E8 03 10 00 00 00 00 00
 (1648942622.597808)  can0  014   [5]  00 00 00 10 27
 (1648942622.598560)  can0  1E5   [8]  1C 02 2A 70 00 00 00 F4
 (1648942622.602392)  can0  012   [8]  E8 03 10 00 00 00 00 00
 (1648942622.607811)  can0  014   [5]  00 00 00 10 27
 (1648942622.608611)  can0  1E5   [8]  1C 02 2C 10 00 00 00 96
 (1648942622.612351)  can0  012   [8]  E8 03 10 00 00 00 00 00
 (1648942622.617840)  can0  014   [5]  00 00 00 10 27
 (1648942622.618601)  can0  1E5   [8]  1C 02 2A 30 00 00 00 B4
 (1648942622.622396)  can0  012   [8]  E8 03 10 00 00 00 00 00
 (1648942622.627815)  can0  014   [5]  00 00 00 10 27
 (1648942622.628583)  can0  1E5   [8]  1C 02 2A 50 00 00 00 D4
 (1648942622.632389)  can0  012   [8]  E8 03 10 00 00 00 00 00
 (1648942622.637850)  can0  014   [5]  00 00 00 10 27
 (1648942622.638546)  can0  1E5   [8]  1C 02 2C 70 00 00 00 F6
 (1648942622.642410)  can0  012   [8]  E8 03 10 00 00 00 00 00
 (1648942622.648705)  can0  014   [5]  00 00 00 10 27
 (1648942622.648715)  can0  1E5   [8]  1C 02 2C 10 00 00 00 96
 (1648942622.652404)  can0  012   [8]  E8 03 10 00 00 00 00 00
 (1648942622.657825)  can0  014   [5]  FF FF FF 10 27
 (1648942622.658588)  can0  1E5   [8]  1C 02 2C 30 00 00 00 B6
 (1648942622.662353)  can0  012   [8]  E8 03 10 00 00 00 00 00
 (1648942622.667826)  can0  014   [5]  00 00 00 10 27
 (1648942622.668598)  can0  1E5   [8]  1C 02 2C 50 00 00 00 D6
 (1648942622.672415)  can0  012   [8]  E8 03 10 00 00 00 00 00
 (1648942622.674591)  can0  010   [4]  36 8B 09 00
 (1648942622.674600)  can0  005   [8]  01 00 00 00 00 00 00 00
 (1648942622.677809)  can0  014   [5]  00 00 00 16 27
 (1648942622.678569)  can0  1E5   [8]  1C 02 2C 70 00 00 00 F6
 (1648942622.682391)  can0  012   [8]  E8 03 10 00 00 00 00 00
 (1648942622.687863)  can0  014   [5]  00 00 00 0A 27
 (1648942622.688590)  can0  1E5   [8]  1C 02 2A 10 00 00 00 94
 (1648942622.692779)  can0  012   [8]  E8 03 10 00 00 00 00 00
 (1648942622.697826)  can0  014   [5]  00 00 00 10 27
 (1648942622.698549)  can0  1E5   [8]  1C 02 2C 30 00 00 00 B6
 (1648942622.702394)  can0  012   [8]  E8 03 10 00 00 00 00 00
 (1648942622.707864)  can0  014   [5]  00 00 00 10 27
 (1648942622.708592)  can0  1E5   [8]  1C 02 2C 50 00 00 00 D6
 (1648942622.712359)  can0  012   [8]  E8 03 10 00 00 00 00 00
 (1648942622.717853)  can0  014   [5]  00 00 00 10 27
 (1648942622.718619)  can0  1E5   [8]  1C 02 2C 70 00 00 00 F6
 (1648942622.722406)  can0  012   [8]  E8 03 10 00 00 00 00 00
 (1648942622.727786)  can0  014   [5]  00 00 00 10 27
 (1648942622.728559)  can0  1E5   [8]  1C 02 2A 10 00 00 00 94
 (1648942622.732395)  can0  012   [8]  E8 03 10 00 00 00 00 00
 (1648942622.737855)  can0  014   [5]  00 00 00 10 27
 (1648942622.738612)  can0  1E5   [8]  1C 02 2A 30 00 00 00 B4
 (1648942622.742896)  can0  012   [8]  E8 03 10 00 00 00 00 00
 (1648942622.747787)  can0  014   [5]  00 00 00 10 27
 (1648942622.748631)  can0  1E5   [8]  1C 02 2C 50 00 00 00 D6
