 (1648942939.402241)  can0  1E5   [8]  1C 00 0C 30 00 00 00 94
 (1648942939.403723)  can0  014   [5]  00 00 00 10 27
 (1648942939.410701)  can0  012   [8]  E8 03 10 00 00 00 00 00
 (1648942939.412752)  can0  1E5   [8]  1C 00 0C 50 00 00 00 B4
 (1648942939.414508)  can0  014   [5]  00 00 00 10 27
 (1648942939.420733)  can0  012   [8]  E8 03 10 00 00 00 00 00
 (1648942939.422302)  can0  1E5   [8]  1C 00 0C 70 00 00 00 D4
 (1648942939.423618)  can0  014   [5]  FF 0F 00 10 27
 (1648942939.430701)  can0  012   [8]  E8 03 10 00 00 00 00 00
 (1648942939.432275)  can0  1E5   [8]  1C 00 0C 10 00 00 00 74
 (1648942939.433579)  can0  014   [5]  00 00 00 10 27
 (1648942939.440741)  can0  012   [8]  E8 03 10 00 00 00 00 00
 (1648942939.442267)  can0  1E5   [8]  1C 00 0C 30 00 00 00 94
 (1648942939.443601)  can0  014   [5]  00 00 00 10 27
 (1648942939.450769)  can0  012   [8]  E8 03 10 00 00 00 00 00
 (1648942939.452245)  can0  1E5   [8]  1C 00 0C 50 00 00 00 B4
 (1648942939.453055)  can0  010   [4]  4D AD 19 00
 (1648942939.453310)  can0  005   [8]  01 00 00 00 00 00 00 00
 (1648942939.453601)  can0  014   [5]  00 00 00 17 27
 (1648942939.460734)  can0  012   [8]  E8 03 10 00 00 00 00 00
 (1648942939.462280)  can0  1E5   [8]  1C 00 0C 70 00 00 00 D4
 (1648942939.463562)  can0  014   [5]  00 00 00 09 27
 (1648942939.470705)  can0  012   [8]  E8 03 10 00 00 00 00 00
 (1648942939.472261)  can0  1E5   [8]  1C 00 0C 10 00 00 00 74
 (1648942939.473574)  can0  014   [5]  00 00 00 10 27
 (1648942939.480698)  can0  012   [8]  E8 03 10 00 00 00 00 00
 (1648942939.482267)  can0  1E5   [8]  1C 00 0C 30 00 00 00 94
 (1648942939.483606)  can0  014   [5]  00 00 00 10 27
 (1648942939.490699)  can0  012   [8]  E8 03 10 00 00 00 00 00
 (1648942939.492269)  can0  1E5   [8]  1C 00 0C 50 00 00 00 B4
 (1648942939.493565)  can0  014   [5]  00 00 00 10 27
 (1648942939.500692)  can0  012   [8]  E8 03 10 00 00 00 00 00
 (1648942939.502244)  can0  1E5   [8]  1C 00 0C 70 00 00 00 D4
 (1648942939.503577)  can0  014   [5]  00 00 00 10 27
 (1648942939.510697)  can0  012   [8]  E8 03 10 00 00 00 00 00
 (1648942939.512241)  can0  1E5   [8]  1C 00 0C 10 00 00 00 74
 (1648942939.513563)  can0  014   [5]  00 00 00 10 27
 (1648942939.520701)  can0  012   [8]  E8 03 10 00 00 00 00 00
 (1648942939.522249)  can0  1E5   [8]  1C 00 0C 30 00 00 00 94
 (1648942939.523580)  can0  014   [5]  00 00 00 10 27
 (1648942939.530706)  can0  012   [8]  E8 03 10 00 00 00 00 00
 (1648942939.532243)  can0  1E5   [8]  1C 00 0C 50 00 00 00 B4
 (1648942939.533566)  can0  014   [5]  01 00 00 10 27
 (1648942939.540700)  can0  012   [8]  E8 03 10 00 00 00 00 00
 (1648942939.542244)  can0  1E5   [8]  1C 00 0C 70 00 00 00 D4
 (1648942939.543547)  can0  014   [5]  00 00 00 10 27
 (1648942939.550697)  can0  012   [8]  E8 03 10 00 00 00 00 00
 (1648942939.552242)  can0  1E5   [8]  1C 00 0C 10 00 00 00 74
 (1648942939.553029)  can0  010   [4]  4D AD 19 00
 (1648942939.553316)  can0  005   [8]  01 00 00 00 00 00 00 00
 (1648942939.553561)  can0  014   [5]  00 00 00 17 27
 (1648942939.560699)  can0  012   [8]  E8 03 10 00 00 00 00 00
 (1648942939.562267)  can0  1E5   [8]  1C 00 0C 30 00 00 00 94
 (1648942939.563542)  can0  014   [5]  00 00 00 09 27
 (1648942939.570722)  can0  012   [8]  E8 03 10 00 00 00 00 00
 (1648942939.572262)  can0  1E5   [8]  1C 00 0C 50 00 00 00 B4
 (1648942939.573560)  can0  014   [5]  00 00 00 10 27
 (1648942939.580707)  can0  012   [8]  E8 03 10 00 00 00 00 00
 (1648942939.582249)  can0  1E5   [8]  1C 00 0C 70 00 00 00 D4
 (1648942939.583546)  can0  014   [5]  00 00 00 10 27
 (1648942939.590715)  can0  012   [8]  E8 03 10 00 00 00 00 00
 (1648942939.592253)  can0  1E5   [8]  1C 00 0C 10 00 00 00 74
 (1648942939.593547)  can0  014   [5]  00 00 00 10 27
 (1648942939.600708)  can0  012   [8]  E8 03 10 00 00 00 00 00
 (1648942939.602303)  can0  1E5   [8]  1C 00 0C 30 00 00 00 94
 (1648942939.603618)  can0  014   [5]  00 00 00 10 27
 (1648942939.610704)  can0  012   [8]  E8 03 10 00 00 00 00 00
 (1648942939.612246)  can0  1E5   [8]  1C 00 0C 50 00 00 00 B4
 (1648942939.613568)  can0  014   [5]  00 00 00 10 27
 (1648942939.620710)  can0  012   [8]  E8 03 10 00 00 00 00 00
 (1648942939.622258)  can0  1E5   [8]  1C 00 0C 70 00 00 00 D4
 (1648942939.623610)  can0  014   [5]  00 00 00 10 27
 (1648942939.630710)  can0  012   [8]  E8 03 10 00 00 00 00 00
 (1648942939.632251)  can0  1E5   [8]  1C 00 0C 10 00 00 00 74
 (1648942939.633570)  can0  014   [5]  00 00 00 10 27
 (1648942939.640705)  can0  012   [8]  E8 03 10 00 00 00 00 00
 (1648942939.642250)  can0  1E5   [8]  1C 00 0C 30 00 00 00 94
 (1648942939.643573)  can0  014   [5]  00 00 00 10 27
 (1648942939.650703)  can0  012   [8]  E8 03 10 00 00 00 00 00
 (1648942939.652247)  can0  1E5   [8]  1C 00 0C 50 00 00 00 B4
 (1648942939.653064)  can0  010   [4]  4D AD 19 00
 (1648942939.653322)  can0  005   [8]  01 00 00 00 00 00 00 00
 (1648942939.653566)  can0  014   [5]  00 00 00 17 27
 (1648942939.660707)  can0  012   [8]  E8 03 10 00 00 00 00 00
 (1648942939.662249)  can0  1E5   [8]  1C 00 0C 70 00 00 00 D4
 (1648942939.663575)  can0  014   [5]  00 00 00 09 27
 (1648942939.670723)  can0  012   [8]  E8 03 10 00 00 00 00 00
 (1648942939.672262)  can0  1E5   [8]  1C 00 0C 10 00 00 00 74
 (1648942939.673557)  can0  014   [5]  00 00 00 10 27
 (1648942939.680709)  can0  012   [8]  E8 03 10 00 00 00 00 00
 (1648942939.682259)  can0  1E5   [8]  1C 00 0C 30 00 00 00 94
 (1648942939.683609)  can0  014   [5]  00 00 00 10 27
 (1648942939.690716)  can0  012   [8]  E8 03 10 00 00 00 00 00
 (1648942939.692298)  can0  1E5   [8]  1C 00 0C 50 00 00 00 B4
 (1648942939.693553)  can0  014   [5]  00 00 00 10 27
 (1648942939.700706)  can0  012   [8]  E8 03 10 00 00 00 00 00
 (1648942939.702274)  can0  1E5   [8]  1C 00 0A 7F FF 00 01 E0
 (1648942939.703594)  can0  014   [5]  00 00 00 10 27
 (1648942939.710725)  can0  012   [8]  E8 03 10 00 00 00 00 00
 (1648942939.712259)  can0  1E5   [8]  1C 00 0A 1F FF 00 01 80
 (1648942939.713560)  can0  014   [5]  00 00 00 10 27
 (1648942939.720759)  can0  012   [8]  E8 03 10 00 00 00 00 00
 (1648942939.722283)  can0  1E5   [8]  1C 00 0A 3F FF 00 01 A0
 (1648942939.723559)  can0  014   [5]  00 00 00 10 27
 (1648942939.730718)  can0  012   [8]  E8 03 10 00 00 00 00 00
 (1648942939.732282)  can0  1E5   [8]  1C 00 0A 5F FF 00 01 C0
 (1648942939.733558)  can0  014   [5]  00 00 00 10 27
 (1648942939.740727)  can0  012   [8]  E8 03 10 00 00 00 00 00
 (1648942939.742263)  can0  1E5   [8]  1C 00 09 7F FE 00 01 DE
 (1648942939.743556)  can0  014   [5]  00 00 00 10 27
 (1648942939.750707)  can0  012   [8]  E8 03 10 00 00 00 00 00
 (1648942939.752262)  can0  1E5   [8]  1C 00 09 1F FE 00 01 7E
 (1648942939.753084)  can0  010   [4]  4D AD 19 00
 (1648942939.753299)  can0  005   [8]  01 00 00 00 00 00 00 00
 (1648942939.753575)  can0  014   [5]  00 00 00 17 27
 (1648942939.760705)  can0  012   [8]  E8 03 10 00 00 00 00 00
 (1648942939.762256)  can0  1E5   [8]  1C 00 09 3F FE 00 01 9E
 (1648942939.763584)  can0  014   [5]  00 00 00 09 27
 (1648942939.770710)  can0  012   [8]  E8 03 10 00 00 00 00 00
 (1648942939.772258)  can0  1E5   [8]  1C 00 09 5F FE 00 01 BE
 (1648942939.773582)  can0  014   [5]  00 00 00 10 27
 (1648942939.780734)  can0  012   [8]  E8 03 10 00 00 00 00 00
 (1648942939.782259)  can0  1E5   [8]  1C 00 09 7F FE 00 01 DE
 (1648942939.783579)  can0  014   [5]  00 00 00 10 27
 (1648942939.790708)  can0  012   [8]  E8 03 10 00 00 00 00 00
 (1648942939.792260)  can0  1E5   [8]  1C 00 09 1F FE 00 01 7E
 (1648942939.793558)  can0  014   [5]  00 00 00 10 27
 (1648942939.800733)  can0  012   [8]  E8 03 10 00 00 00 00 00
 (1648942939.802264)  can0  1E5   [8]  1C 00 09 3F FF 00 01 9F
 (1648942939.803556)  can0  014   [5]  00 00 00 10 27
 (1648942939.810708)  can0  012   [8]  E8 03 10 00 00 00 00 00
 (1648942939.812253)  can0  1E5   [8]  1C 00 09 5F FF 00 01 BF
 (1648942939.813552)  can0  014   [5]  00 00 00 10 27
 (1648942939.820715)  can0  012   [8]  E8 03 10 00 00 00 00 00
 (1648942939.822335)  can0  1E5   [8]  1C 00 09 7F FF 00 01 DF
 (1648942939.823615)  can0  014   [5]  00 00 00 10 27
 (1648942939.830754)  can0  012   [8]  E8 03 10 00 00 00 00 00
 (1648942939.832264)  can0  1E5   [8]  1C 00 09 1F FF 00 01 7F
 (1648942939.833613)  can0  014   [5]  00 00 00 10 27
 (1648942939.840719)  can0  012   [8]  E8 03 10 00 00 00 00 00
 (1648942939.842275)  can0  1E5   [8]  1C 00 09 30 00 00 00 91
 (1648942939.843565)  can0  014   [5]  00 00 00 10 27
 (1648942939.850744)  can0  012   [8]  E8 03 10 00 00 00 00 00
 (1648942939.852316)  can0  1E5   [8]  1C 00 09 50 00 00 00 B1
 (1648942939.853050)  can0  010   [4]  4D AD 19 00
 (1648942939.853314)  can0  005   [8]  01 00 00 00 00 00 00 00
 (1648942939.853584)  can0  014   [5]  FF 0F 00 17 27
 (1648942939.860768)  can0  012   [8]  E8 03 10 00 00 00 00 00
 (1648942939.862273)  can0  1E5   [8]  1C 00 09 70 00 00 00 D1
 (1648942939.863624)  can0  014   [5]  00 00 00 09 27
 (1648942939.870707)  can0  012   [8]  E8 03 10 00 00 00 00 00
 (1648942939.872278)  can0  1E5   [8]  1C 00 09 10 00 00 00 71
 (1648942939.873581)  can0  014   [5]  00 00 00 10 27
 (1648942939.880785)  can0  012   [8]  E8 03 10 00 00 00 00 00
 (1648942939.882264)  can0  1E5   [8]  1C 00 09 30 00 00 00 91
 (1648942939.883624)  can0  014   [5]  00 00 00 10 27
 (1648942939.890738)  can0  012   [8]  E8 03 10 00 00 00 00 00
 (1648942939.892287)  can0  1E5   [8]  1C 00 09 50 00 00 00 B1
 (1648942939.893576)  can0  014   [5]  00 00 00 10 27
 (1648942939.900781)  can0  012   [8]  E8 03 10 00 00 00 00 00
 (1648942939.902279)  can0  1E5   [8]  1C 00 09 70 00 00 00 D1
 (1648942939.903625)  can0  014   [5]  00 00 00 10 27
 (1648942939.910748)  can0  012   [8]  E8 03 10 00 00 00 00 00
 (1648942939.912341)  can0  1E5   [8]  1C 00 09 10 00 00 00 71
 (1648942939.913585)  can0  014   [5]  00 F0 FF 10 27
 (1648942939.920732)  can0  012   [8]  E8 03 10 00 00 00 00 00
 (1648942939.922293)  can0  1E5   [8]  1C 00 09 30 00 00 00 91
 (1648942939.923671)  can0  014   [5]  00 00 00 10 27
 (1648942939.930769)  can0  012   [8]  E8 03 10 00 00 00 00 00
 (1648942939.932303)  can0  1E5   [8]  1C 00 09 50 00 00 00 B1
 (1648942939.933652)  can0  014   [5]  00 00 00 10 27
 (1648942939.940757)  can0  012   [8]  E8 03 10 00 00 00 00 00
 (1648942939.942314)  can0  1E5   [8]  1C 00 09 70 00 00 00 D1
 (1648942939.943643)  can0  014   [5]  00 00 00 10 27
 (1648942939.950760)  can0  012   [8]  E8 03 10 00 00 00 00 00
 (1648942939.952274)  can0  1E5   [8]  1C 00 09 10 00 00 00 71
 (1648942939.953104)  can0  010   [4]  4D AD 19 00
 (1648942939.953328)  can0  005   [8]  01 00 00 00 00 00 00 00
 (1648942939.953661)  can0  014   [5]  00 00 00 17 27
 (1648942939.960755)  can0  012   [8]  E8 03 10 00 00 00 00 00
 (1648942939.962294)  can0  1E5   [8]  1C 00 09 30 00 00 00 91
 (1648942939.963604)  can0  014   [5]  00 00 00 09 27
 (1648942939.970794)  can0  012   [8]  E8 03 10 00 00 00 00 00
 (1648942939.972326)  can0  1E5   [8]  1C 00 09 50 00 00 00 B1
 (1648942939.973662)  can0  014   [5]  00 00 00 10 27
 (1648942939.980778)  can0  012   [8]  E8 03 10 00 00 00 00 00
 (1648942939.982328)  can0  1E5   [8]  1C 00 09 70 00 00 00 D1
 (1648942939.983627)  can0  014   [5]  00 00 00 10 27
 (1648942939.990790)  can0  012   [8]  E8 03 10 00 00 00 00 00
 (1648942939.992310)  can0  1E5   [8]  1C 00 09 10 00 00 00 71
 (1648942939.993631)  can0  014   [5]  00 00 00 10 27
 (1648942940.000734)  can0  012   [8]  E8 03 10 00 00 00 00 00
 (1648942940.002261)  can0  1E5   [8]  1C 00 09 30 00 00 00 91
 (1648942940.003592)  can0  014   [5]  00 00 00 10 27
 (1648942940.010784)  can0  012   [8]  E8 03 10 00 00 00 00 00
 (1648942940.012322)  can0  1E5   [8]  1C 00 09 50 00 00 00 B1
 (1648942940.013623)  can0  014   [5]  00 00 00 10 27
 (1648942940.020796)  can0  012   [8]  E8 03 10 00 00 00 00 00
 (1648942940.022296)  can0  1E5   [8]  1C 00 09 70 00 00 00 D1
 (1648942940.023636)  can0  014   [5]  00 00 00 10 27
 (1648942940.030786)  can0  012   [8]  E8 03 10 00 00 00 00 00
 (1648942940.032328)  can0  1E5   [8]  1C 00 09 10 00 00 00 71
 (1648942940.033633)  can0  014   [5]  00 00 00 10 27
 (1648942940.040792)  can0  012   [8]  E8 03 10 00 00 00 00 00
 (1648942940.042278)  can0  1E5   [8]  1C 00 09 30 00 00 00 91
 (1648942940.043587)  can0  014   [5]  00 00 00 10 27
 (1648942940.050800)  can0  012   [8]  E8 03 10 00 00 00 00 00
 (1648942940.052286)  can0  1E5   [8]  1C 00 09 50 00 00 00 B1
 (1648942940.053110)  can0  010   [4]  4D AD 19 00
 (1648942940.053342)  can0  005   [8]  01 00 00 00 00 00 00 00
 (1648942940.053590)  can0  014   [5]  00 00 00 17 27
 (1648942940.060782)  can0  012   [8]  E8 03 10 00 00 00 00 00
 (1648942940.062304)  can0  1E5   [8]  1C 00 09 70 00 00 00 D1
 (1648942940.063588)  can0  014   [5]  00 10 00 09 27
 (1648942940.070791)  can0  012   [8]  E8 03 10 00 00 00 00 00
 (1648942940.072278)  can0  1E5   [8]  1C 00 09 10 00 00 00 71
 (1648942940.073652)  can0  014   [5]  00 00 00 10 27
 (1648942940.080722)  can0  012   [8]  E8 03 10 00 00 00 00 00
 (1648942940.082275)  can0  1E5   [8]  1C 00 09 30 00 00 00 91
 (1648942940.083593)  can0  014   [5]  00 00 00 10 27
 (1648942940.090724)  can0  012   [8]  E8 03 10 00 00 00 00 00
 (1648942940.092283)  can0  1E5   [8]  1C 00 09 50 00 00 00 B1
 (1648942940.093634)  can0  014   [5]  00 00 00 10 27
 (1648942940.100720)  can0  012   [8]  E8 03 10 00 00 00 00 00
 (1648942940.102272)  can0  1E5   [8]  1C 00 09 70 00 00 00 D1
 (1648942940.103603)  can0  014   [5]  00 00 00 10 27
 (1648942940.110726)  can0  012   [8]  E8 03 10 00 00 00 00 00
 (1648942940.112270)  can0  1E5   [8]  1C 00 09 10 00 00 00 71
 (1648942940.113589)  can0  014   [5]  00 00 00 10 27
 (1648942940.120750)  can0  012   [8]  E8 03 10 00 00 00 00 00
 (1648942940.122295)  can0  1E5   [8]  1C 00 09 30 00 00 00 91
 (1648942940.123717)  can0  014   [5]  00 00 00 10 27
 (1648942940.130791)  can0  012   [8]  E8 03 10 00 00 00 00 00
 (1648942940.132277)  can0  1E5   [8]  1C 00 09 50 00 00 00 B1
 (1648942940.133628)  can0  014   [5]  00 00 00 10 27
 (1648942940.140725)  can0  012   [8]  E8 03 10 00 00 00 00 00
 (1648942940.142298)  can0  1E5   [8]  1C 00 09 70 00 00 00 D1
 (1648942940.143636)  can0  014   [5]  00 00 00 10 27
 (1648942940.150724)  can0  012   [8]  E8 03 10 00 00 00 00 00
 (1648942940.152278)  can0  1E5   [8]  1C 00 09 10 00 00 00 71
 (1648942940.153125)  can0  010   [4]  4D AD 19 00
 (1648942940.153347)  can0  005   [8]  01 00 00 00 00 00 00 00
 (1648942940.153595)  can0  014   [5]  00 00 00 17 27
 (1648942940.160772)  can0  012   [8]  E8 03 10 00 00 00 00 00
 (1648942940.160933)  can0  0E3   [2]  23 01
 (1648942940.162321)  can0  1E5   [8]  1C 00 09 30 00 00 00 91
 (1648942940.163642)  can0  014   [5]  00 00 00 0C 27
 (1648942940.170790)  can0  012   [8]  E8 03 10 00 00 00 00 00
 (1648942940.172350)  can0  1E5   [8]  1C 00 09 50 00 00 00 B1
 (1648942940.173602)  can0  014   [5]  00 00 00 0D 27
 (1648942940.180754)  can0  012   [8]  E8 03 10 00 00 00 00 00
 (1648942940.182340)  can0  1E5   [8]  1C 00 09 70 00 00 00 D1
 (1648942940.183642)  can0  014   [5]  00 00 00 10 27
 (1648942940.190743)  can0  012   [8]  E8 03 10 00 00 00 00 00
 (1648942940.192306)  can0  1E5   [8]  1C 00 09 10 00 00 00 71
 (1648942940.193646)  can0  014   [5]  00 00 00 10 27
 (1648942940.200766)  can0  012   [8]  E8 03 10 00 00 00 00 00
 (1648942940.202282)  can0  1E5   [8]  1C 00 09 30 00 00 00 91
 (1648942940.203611)  can0  014   [5]  00 00 00 10 27
 (1648942940.210734)  can0  012   [8]  E8 03 10 00 00 00 00 00
 (1648942940.212601)  can0  1E5   [8]  1C 00 09 50 00 00 00 B1
 (1648942940.213595)  can0  014   [5]  00 00 00 10 27
 (1648942940.220750)  can0  012   [8]  E8 03 10 00 00 00 00 00
 (1648942940.222283)  can0  1E5   [8]  1C 00 09 70 00 00 00 D1
 (1648942940.223613)  can0  014   [5]  00 00 00 10 27
 (1648942940.230772)  can0  012   [8]  E8 03 10 00 00 00 00 00
 (1648942940.232314)  can0  1E5   [8]  1C 00 09 10 00 00 00 71
 (1648942940.233648)  can0  014   [5]  00 00 00 10 27
 (1648942940.240726)  can0  012   [8]  E8 03 10 00 00 00 00 00
 (1648942940.242310)  can0  1E5   [8]  1C 00 09 30 00 00 00 91
 (1648942940.243626)  can0  014   [5]  00 00 00 10 27
 (1648942940.250778)  can0  012   [8]  E8 03 10 00 00 00 00 00
 (1648942940.252287)  can0  1E5   [8]  1C 00 09 50 00 00 00 B1
 (1648942940.253097)  can0  010   [4]  4D AD 19 00
 (1648942940.253357)  can0  005   [8]  01 00 00 00 00 00 00 00
 (1648942940.253600)  can0  014   [5]  00 00 00 17 27
 (1648942940.260805)  can0  012   [8]  E8 03 10 00 00 00 00 00
 (1648942940.262307)  can0  1E5   [8]  1C 00 09 70 00 00 00 D1
 (1648942940.263648)  can0  014   [5]  00 00 00 09 27
 (1648942940.270792)  can0  012   [8]  E8 03 10 00 00 00 00 00
 (1648942940.272288)  can0  1E5   [8]  1C 00 09 10 00 00 00 71
 (1648942940.273620)  can0  014   [5]  00 00 00 10 27
 (1648942940.280773)  can0  012   [8]  E8 03 10 00 00 00 00 00
 (1648942940.282279)  can0  1E5   [8]  1C 00 09 30 00 00 00 91
 (1648942940.283638)  can0  014   [5]  00 00 00 10 27
 (1648942940.290750)  can0  012   [8]  E8 03 10 00 00 00 00 00
 (1648942940.292416)  can0  1E5   [8]  1C 00 09 50 00 00 00 B1
 (1648942940.293631)  can0  014   [5]  00 00 00 10 27
 (1648942940.300846)  can0  012   [8]  E8 03 10 00 00 00 00 00
 (1648942940.302277)  can0  1E5   [8]  1C 00 09 70 00 00 00 D1
 (1648942940.303612)  can0  014   [5]  00 00 00 10 27
 (1648942940.310782)  can0  012   [8]  E8 03 10 00 00 00 00 00
 (1648942940.312321)  can0  1E5   [8]  1C 00 09 10 00 00 00 71
 (1648942940.313654)  can0  014   [5]  00 00 00 10 27
 (1648942940.320791)  can0  012   [8]  E8 03 10 00 00 00 00 00
 (1648942940.322328)  can0  1E5   [8]  1C 00 09 30 00 00 00 91
 (1648942940.323647)  can0  014   [5]  00 00 00 10 27
 (1648942940.330735)  can0  012   [8]  E8 03 10 00 00 00 00 00
 (1648942940.332322)  can0  1E5   [8]  1C 00 09 50 00 00 00 B1
 (1648942940.333633)  can0  014   [5]  00 F0 FF 10 27
 (1648942940.340774)  can0  012   [8]  E8 03 10 00 00 00 00 00
 (1648942940.342284)  can0  1E5   [8]  1C 00 09 70 00 00 00 D1
 (1648942940.343609)  can0  014   [5]  00 00 00 10 27
 (1648942940.350850)  can0  012   [8]  E8 03 10 00 00 00 00 00
 (1648942940.352289)  can0  1E5   [8]  1C 00 09 10 00 00 00 71
 (1648942940.353115)  can0  010   [4]  4D AD 19 00
 (1648942940.353366)  can0  005   [8]  01 00 00 00 00 00 00 00
 (1648942940.353507)  can0  0E2   [2]  23 01
 (1648942940.353682)  can0  014   [5]  00 00 00 17 27
 (1648942940.353802)  can0  0E4   [2]  23 01
 (1648942940.360783)  can0  012   [8]  E8 03 10 00 00 00 00 00
 (1648942940.362321)  can0  1E5   [8]  1C 00 09 30 00 00 00 91
 (1648942940.363650)  can0  014   [5]  00 00 00 0C 27
 (1648942940.370794)  can0  012   [8]  E8 03 10 00 00 00 00 00
 (1648942940.372345)  can0  1E5   [8]  1C 00 09 50 00 00 00 B1
 (1648942940.373648)  can0  014   [5]  00 00 00 0D 27
 (1648942940.380788)  can0  012   [8]  E8 03 10 00 00 00 00 00
 (1648942940.382336)  can0  1E5   [8]  1C 00 09 70 00 00 00 D1
 (1648942940.383655)  can0  014   [5]  00 10 00 10 27
 (1648942940.390740)  can0  012   [8]  E8 03 10 00 00 00 00 00
 (1648942940.392334)  can0  1E5   [8]  1C 00 09 10 00 00 00 71
 (1648942940.393649)  can0  014   [5]  00 00 00 10 27
 (1648942940.400777)  can0  012   [8]  E8 03 10 00 00 00 00 00
 (1648942940.402289)  can0  1E5   [8]  1C 00 09 30 00 00 00 91
 (1648942940.403615)  can0  014   [5]  00 00 00 10 27
 (1648942940.410784)  can0  012   [8]  E8 03 10 00 00 00 00 00
 (1648942940.412309)  can0  1E5   [8]  1C 00 09 50 00 00 00 B1
 (1648942940.413659)  can0  014   [5]  00 00 00 10 27
 (1648942940.420751)  can0  012   [8]  E8 03 10 00 00 00 00 00
 (1648942940.422300)  can0  1E5   [8]  1C 00 09 70 00 00 00 D1
 (1648942940.423629)  can0  014   [5]  00 00 00 10 27
 (1648942940.430794)  can0  012   [8]  E8 03 10 00 00 00 00 00
 (1648942940.432331)  can0  1E5   [8]  1C 00 09 10 00 00 00 71
 (1648942940.433663)  can0  014   [5]  00 00 00 10 27
 (1648942940.440753)  can0  012   [8]  E8 03 10 00 00 00 00 00
 (1648942940.442348)  can0  1E5   [8]  1C 00 09 30 00 00 00 91
 (1648942940.443662)  can0  014   [5]  00 00 00 10 27
 (1648942940.450778)  can0  012   [8]  E8 03 10 00 00 00 00 00
 (1648942940.452344)  can0  1E5   [8]  1C 00 09 50 00 00 00 B1
 (1648942940.453112)  can0  010   [4]  4D AD 19 00
 (1648942940.453361)  can0  005   [8]  01 00 00 00 00 00 00 00
 (1648942940.453618)  can0  014   [5]  00 00 00 17 27
 (1648942940.460785)  can0  012   [8]  E8 03 10 00 00 00 00 00
 (1648942940.462314)  can0  1E5   [8]  1C 00 09 70 00 00 00 D1
 (1648942940.463616)  can0  014   [5]  00 00 00 09 27
 (1648942940.470803)  can0  012   [8]  E8 03 10 00 00 00 00 00
 (1648942940.472347)  can0  1E5   [8]  1C 00 09 10 00 00 00 71
 (1648942940.473670)  can0  014   [5]  00 00 00 10 27
 (1648942940.480783)  can0  012   [8]  E8 03 10 00 00 00 00 00
 (1648942940.482329)  can0  1E5   [8]  1C 00 09 30 00 00 00 91
 (1648942940.483621)  can0  014   [5]  00 00 00 10 27
 (1648942940.490766)  can0  012   [8]  E8 03 10 00 00 00 00 00
 (1648942940.492300)  can0  1E5   [8]  1C 00 09 50 00 00 00 B1
 (1648942940.493641)  can0  014   [5]  00 00 00 10 27
 (1648942940.500795)  can0  012   [8]  E8 03 10 00 00 00 00 00
 (1648942940.502290)  can0  1E5   [8]  1C 00 09 70 00 00 00 D1
 (1648942940.503609)  can0  014   [5]  00 00 00 10 27
 (1648942940.510790)  can0  012   [8]  E8 03 10 00 00 00 00 00
 (1648942940.512309)  can0  1E5   [8]  1C 00 09 10 00 00 00 71
 (1648942940.513655)  can0  014   [5]  00 00 00 10 27
 (1648942940.520753)  can0  012   [8]  E8 03 10 00 00 00 00 00
 (1648942940.522299)  can0  1E5   [8]  1C 00 09 30 00 00 00 91
 (1648942940.523622)  can0  014   [5]  00 00 00 10 27
 (1648942940.530787)  can0  012   [8]  E8 03 10 00 00 00 00 00
 (1648942940.532337)  can0  1E5   [8]  1C 00 09 50 00 00 00 B1
 (1648942940.533661)  can0  014   [5]  00 00 00 10 27
 (1648942940.540761)  can0  012   [8]  E8 03 10 00 00 00 00 00
 (1648942940.542295)  can0  1E5   [8]  1C 00 09 70 00 00 00 D1
 (1648942940.543614)  can0  014   [5]  00 00 00 10 27
 (1648942940.550795)  can0  012   [8]  E8 03 10 00 00 00 00 00
 (1648942940.552354)  can0  1E5   [8]  1C 00 09 10 00 00 00 71
 (1648942940.553167)  can0  010   [4]  4D AD 19 00
 (1648942940.553372)  can0  005   [8]  01 00 00 00 00 00 00 00
 (1648942940.553621)  can0  014   [5]  00 00 00 17 27
 (1648942940.560797)  can0  012   [8]  E8 03 10 00 00 00 00 00
 (1648942940.562313)  can0  1E5   [8]  1C 00 09 30 00 00 00 91
 (1648942940.563669)  can0  014   [5]  00 00 00 09 27
 (1648942940.570797)  can0  012   [8]  E8 03 10 00 00 00 00 00
 (1648942940.572338)  can0  1E5   [8]  1C 00 09 50 00 00 00 B1
 (1648942940.573663)  can0  014   [5]  00 00 00 10 27
 (1648942940.580807)  can0  012   [8]  E8 03 10 00 00 00 00 00
 (1648942940.582305)  can0  1E5   [8]  1C 00 09 70 00 00 00 D1
 (1648942940.583717)  can0  014   [5]  00 00 00 10 27
 (1648942940.590765)  can0  012   [8]  E8 03 10 00 00 00 00 00
 (1648942940.592304)  can0  1E5   [8]  1C 00 09 10 00 00 00 71
 (1648942940.593624)  can0  014   [5]  00 00 00 10 27
 (1648942940.600804)  can0  012   [8]  E8 03 10 00 00 00 00 00
 (1648942940.602328)  can0  1E5   [8]  1C 00 09 30 00 00 00 91
 (1648942940.603675)  can0  014   [5]  00 00 00 10 27
 (1648942940.610801)  can0  012   [8]  E8 03 10 00 00 00 00 00
 (1648942940.612341)  can0  1E5   [8]  1C 00 09 50 00 00 00 B1
 (1648942940.613628)  can0  014   [5]  00 F0 FF 10 27
 (1648942940.620798)  can0  012   [8]  E8 03 10 00 00 00 00 00
 (1648942940.622326)  can0  1E5   [8]  1C 00 09 70 00 00 00 D1
 (1648942940.623678)  can0  014   [5]  00 00 00 10 27
 (1648942940.630764)  can0  012   [8]  E8 03 10 00 00 00 00 00
 (1648942940.632328)  can0  1E5   [8]  1C 00 09 10 00 00 00 71
 (1648942940.633622)  can0  014   [5]  00 00 00 10 27
 (1648942940.640752)  can0  012   [8]  E8 03 10 00 00 00 00 00
 (1648942940.642286)  can0  1E5   [8]  1C 00 09 30 00 00 00 91
 (1648942940.643670)  can0  014   [5]  00 10 00 10 27
 (1648942940.650764)  can0  012   [8]  E8 03 10 00 00 00 00 00
 (1648942940.652343)  can0  1E5   [8]  1C 00 09 50 00 00 00 B1
 (1648942940.653105)  can0  010   [4]  4D AD 19 00
 (1648942940.653374)  can0  005   [8]  01 00 00 00 00 00 00 00
 (1648942940.653627)  can0  014   [5]  00 00 00 17 27
 (1648942940.660803)  can0  012   [8]  E8 03 10 00 00 00 00 00
 (1648942940.662334)  can0  1E5   [8]  1C 00 09 70 00 00 00 D1
 (1648942940.663687)  can0  014   [5]  00 00 00 09 27
 (1648942940.670801)  can0  012   [8]  E8 03 10 00 00 00 00 00
 (1648942940.672358)  can0  1E5   [8]  1C 00 09 10 00 00 00 71
 (1648942940.673630)  can0  014   [5]  00 00 00 10 27
 (1648942940.680813)  can0  012   [8]  E8 03 10 00 00 00 00 00
 (1648942940.682337)  can0  1E5   [8]  1C 00 09 30 00 00 00 91
 (1648942940.683672)  can0  014   [5]  00 00 00 10 27
 (1648942940.690816)  can0  012   [8]  E8 03 10 00 00 00 00 00
 (1648942940.692287)  can0  1E5   [8]  1C 00 09 50 00 00 00 B1
 (1648942940.693691)  can0  014   [5]  00 00 00 10 27
