 (1648943152.598284)  can0  014   [5]  00 00 00 10 27
 (1648943152.605405)  can0  012   [8]  E8 03 10 00 00 00 00 00
 (1648943152.606299)  can0  1E5   [8]  1C 05 12 70 00 00 00 DF
 (1648943152.608363)  can0  014   [5]  00 00 00 10 27
 (1648943152.615357)  can0  012   [8]  E8 03 10 00 00 00 00 00
 (1648943152.616279)  can0  1E5   [8]  1C 05 12 10 00 00 00 7F
 (1648943152.618329)  can0  014   [5]  00 00 00 10 27
 (1648943152.625367)  can0  012   [8]  E8 03 10 00 00 00 00 00
 (1648943152.626317)  can0  1E5   [8]  1C 05 12 30 00 00 00 9F
 (1648943152.628332)  can0  014   [5]  00 00 00 10 27
 (1648943152.635403)  can0  012   [8]  E8 03 10 00 00 00 00 00
 (1648943152.636309)  can0  1E5   [8]  1C 05 12 50 00 00 00 BF
 (1648943152.637926)  can0  010   [4]  54 B9 1D 00
 (1648943152.638153)  can0  005   [8]  01 00 00 00 00 00 00 00
 (1648943152.638335)  can0  014   [5]  00 00 00 13 27
 (1648943152.645450)  can0  012   [8]  E8 03 10 00 00 00 00 00
 (1648943152.646389)  can0  1E5   [8]  1C 05 12 70 00 00 00 DF
 (1648943152.648332)  can0  014   [5]  00 00 00 10 27
 (1648943152.655401)  can0  012   [8]  E8 03 10 00 00 00 00 00
 (1648943152.656345)  can0  1E5   [8]  1C 05 12 10 00 00 00 7F
 (1648943152.658304)  can0  014   [5]  00 00 00 0D 27
 (1648943152.665415)  can0  012   [8]  E8 03 10 00 00 00 00 00
 (1648943152.666359)  can0  1E5   [8]  1C 05 12 30 00 00 00 9F
 (1648943152.668326)  can0  014   [5]  00 00 00 10 27
 (1648943152.675373)  can0  012   [8]  E8 03 10 00 00 00 00 00
 (1648943152.676341)  can0  1E5   [8]  1C 05 12 50 00 00 00 BF
 (1648943152.678333)  can0  014   [5]  00 00 00 10 27
 (1648943152.685406)  can0  012   [8]  E8 03 10 00 00 00 00 00
 (1648943152.686279)  can0  1E5   [8]  1C 05 12 70 00 00 00 DF
 (1648943152.688332)  can0  014   [5]  00 00 00 10 27
 (1648943152.695416)  can0  012   [8]  E8 03 10 00 00 00 00 00
 (1648943152.696357)  can0  1E5   [8]  1C 05 12 10 00 00 00 7F
 (1648943152.698338)  can0  014   [5]  00 00 00 10 27
 (1648943152.705457)  can0  012   [8]  E8 03 10 00 00 00 00 00
 (1648943152.706321)  can0  1E5   [8]  1C 05 12 30 00 00 00 9F
 (1648943152.708299)  can0  014   [5]  00 00 00 10 27
 (1648943152.715401)  can0  012   [8]  E8 03 10 00 00 00 00 00
 (1648943152.716337)  can0  1E5   [8]  1C 05 12 50 00 00 00 BF
 (1648943152.718332)  can0  014   [5]  00 00 00 10 27
 (1648943152.725418)  can0  012   [8]  E8 03 10 00 00 00 00 00
 (1648943152.726405)  can0  1E5   [8]  1C 05 12 70 00 00 00 DF
 (1648943152.728345)  can0  014   [5]  00 00 00 10 27
 (1648943152.735410)  can0  012   [8]  E8 03 10 00 00 00 00 00
 (1648943152.736286)  can0  1E5   [8]  1C 05 12 10 00 00 00 7F
 (1648943152.737908)  can0  010   [4]  54 B9 1D 00
 (1648943152.738143)  can0  005   [8]  01 00 00 00 00 00 00 00
 (1648943152.738333)  can0  014   [5]  00 00 00 13 27
 (1648943152.745425)  can0  012   [8]  E8 03 10 00 00 00 00 00
 (1648943152.746286)  can0  1E5   [8]  1C 05 12 30 00 00 00 9F
 (1648943152.748296)  can0  014   [5]  00 00 00 10 27
 (1648943152.755401)  can0  012   [8]  E8 03 10 00 00 00 00 00
 (1648943152.756369)  can0  1E5   [8]  1C 05 12 50 00 00 00 BF
 (1648943152.758316)  can0  014   [5]  00 00 00 0D 27
 (1648943152.765449)  can0  012   [8]  E8 03 10 00 00 00 00 00
 (1648943152.766339)  can0  1E5   [8]  1C 05 12 70 00 00 00 DF
 (1648943152.768293)  can0  014   [5]  00 00 00 10 27
 (1648943152.775465)  can0  012   [8]  E8 03 10 00 00 00 00 00
 (1648943152.776296)  can0  1E5   [8]  1C 05 12 10 00 00 00 7F
 (1648943152.778309)  can0  014   [5]  00 00 00 10 27
 (1648943152.785416)  can0  012   [8]  E8 03 10 00 00 00 00 00
 (1648943152.786361)  can0  1E5   [8]  1C 05 12 30 00 00 00 9F
 (1648943152.788325)  can0  014   [5]  00 00 00 10 27
 (1648943152.795416)  can0  012   [8]  E8 03 10 00 00 00 00 00
 (1648943152.796330)  can0  1E5   [8]  1C 05 12 50 00 00 00 BF
 (1648943152.798332)  can0  014   [5]  00 00 00 10 27
 (1648943152.805414)  can0  012   [8]  E8 03 10 00 00 00 00 00
 (1648943152.806349)  can0  1E5   [8]  1C 05 12 70 00 00 00 DF
 (1648943152.808366)  can0  014   [5]  00 00 00 10 27
 (1648943152.815410)  can0  012   [8]  E8 03 10 00 00 00 00 00
 (1648943152.816343)  can0  1E5   [8]  1C 05 12 10 00 00 00 7F
 (1648943152.818314)  can0  014   [5]  00 00 00 10 27
 (1648943152.825440)  can0  012   [8]  E8 03 10 00 00 00 00 00
 (1648943152.826323)  can0  1E5   [8]  1C 05 12 30 00 00 00 9F
 (1648943152.828371)  can0  014   [5]  00 00 00 10 27
 (1648943152.835385)  can0  012   [8]  E8 03 10 00 00 00 00 00
 (1648943152.836297)  can0  1E5   [8]  1C 05 12 50 00 00 00 BF
 (1648943152.837944)  can0  010   [4]  54 B9 1D 00
 (1648943152.838161)  can0  005   [8]  01 00 00 00 00 00 00 00
 (1648943152.838342)  can0  014   [5]  00 00 00 13 27
 (1648943152.845500)  can0  012   [8]  E8 03 10 00 00 00 00 00
 (1648943152.846296)  can0  1E5   [8]  1C 05 12 70 00 00 00 DF
 (1648943152.848301)  can0  014   [5]  00 00 00 10 27
 (1648943152.855460)  can0  012   [8]  E8 03 10 00 00 00 00 00
 (1648943152.856355)  can0  1E5   [8]  1C 05 12 10 00 00 00 7F
 (1648943152.858312)  can0  014   [5]  00 00 00 0D 27
 (1648943152.865443)  can0  012   [8]  E8 03 10 00 00 00 00 00
 (1648943152.866345)  can0  1E5   [8]  1C 05 12 30 00 00 00 9F
 (1648943152.868337)  can0  014   [5]  00 00 00 10 27
 (1648943152.875374)  can0  012   [8]  E8 03 10 00 00 00 00 00
 (1648943152.876308)  can0  1E5   [8]  1C 05 12 50 00 00 00 BF
 (1648943152.878354)  can0  014   [5]  00 00 00 10 27
 (1648943152.885420)  can0  012   [8]  E8 03 10 00 00 00 00 00
 (1648943152.886346)  can0  1E5   [8]  1C 05 12 70 00 00 00 DF
 (1648943152.888322)  can0  014   [5]  00 00 00 10 27
 (1648943152.895390)  can0  012   [8]  E8 03 10 00 00 00 00 00
 (1648943152.896411)  can0  1E5   [8]  1C 05 12 10 00 00 00 7F
 (1648943152.898348)  can0  014   [5]  00 00 00 10 27
 (1648943152.905419)  can0  012   [8]  E8 03 10 00 00 00 00 00
 (1648943152.906316)  can0  1E5   [8]  1C 05 12 30 00 00 00 9F
 (1648943152.908299)  can0  014   [5]  00 00 00 10 27
 (1648943152.915487)  can0  012   [8]  E8 03 10 00 00 00 00 00
 (1648943152.916299)  can0  1E5   [8]  1C 05 12 50 00 00 00 BF
 (1648943152.918323)  can0  014   [5]  00 00 00 10 27
 (1648943152.925386)  can0  012   [8]  E8 03 10 00 00 00 00 00
 (1648943152.926384)  can0  1E5   [8]  1C 05 12 70 00 00 00 DF
 (1648943152.928346)  can0  014   [5]  00 00 00 10 27
 (1648943152.935431)  can0  012   [8]  E8 03 10 00 00 00 00 00
 (1648943152.936302)  can0  1E5   [8]  1C 05 12 10 00 00 00 7F
 (1648943152.937954)  can0  010   [4]  54 B9 1D 00
 (1648943152.938150)  can0  005   [8]  01 00 00 00 00 00 00 00
 (1648943152.938346)  can0  014   [5]  00 00 00 13 27
 (1648943152.945431)  can0  012   [8]  E8 03 10 00 00 00 00 00
 (1648943152.946353)  can0  1E5   [8]  1C 05 12 30 00 00 00 9F
 (1648943152.948341)  can0  014   [5]  00 00 00 10 27
 (1648943152.955434)  can0  012   [8]  E8 03 10 00 00 00 00 00
 (1648943152.956350)  can0  1E5   [8]  1C 05 12 50 00 00 00 BF
 (1648943152.958318)  can0  014   [5]  00 00 00 0D 27
 (1648943152.965501)  can0  012   [8]  E8 03 10 00 00 00 00 00
 (1648943152.966306)  can0  1E5   [8]  1C 05 12 70 00 00 00 DF
 (1648943152.968345)  can0  014   [5]  00 00 00 10 27
 (1648943152.975395)  can0  012   [8]  E8 03 10 00 00 00 00 00
 (1648943152.976311)  can0  1E5   [8]  1C 05 12 10 00 00 00 7F
 (1648943152.978344)  can0  014   [5]  00 00 00 10 27
 (1648943152.985426)  can0  012   [8]  E8 03 10 00 00 00 00 00
 (1648943152.986355)  can0  1E5   [8]  1C 05 12 30 00 00 00 9F
 (1648943152.988301)  can0  014   [5]  00 00 00 10 27
 (1648943152.995434)  can0  012   [8]  E8 03 10 00 00 00 00 00
 (1648943152.996355)  can0  1E5   [8]  1C 05 12 50 00 00 00 BF
 (1648943152.998345)  can0  014   [5]  00 00 00 10 27
 (1648943153.005430)  can0  012   [8]  E8 03 10 00 00 00 00 00
 (1648943153.006361)  can0  1E5   [8]  1C 05 12 70 00 00 00 DF
 (1648943153.008324)  can0  014   [5]  00 00 00 10 27
 (1648943153.015420)  can0  012   [8]  E8 03 10 00 00 00 00 00
 (1648943153.016309)  can0  1E5   [8]  1C 05 12 10 00 00 00 7F
 (1648943153.018386)  can0  014   [5]  00 00 00 10 27
 (1648943153.025406)  can0  012   [8]  E8 03 10 00 00 00 00 00
 (1648943153.026352)  can0  1E5   [8]  1C 05 12 30 00 00 00 9F
 (1648943153.028321)  can0  014   [5]  00 00 00 10 27
 (1648943153.035389)  can0  012   [8]  E8 03 10 00 00 00 00 00
 (1648943153.036365)  can0  1E5   [8]  1C 05 12 50 00 00 00 BF
 (1648943153.037941)  can0  010   [4]  54 B9 1D 00
 (1648943153.038153)  can0  005   [8]  01 00 00 00 00 00 00 00
 (1648943153.038353)  can0  014   [5]  00 00 00 13 27
 (1648943153.045398)  can0  012   [8]  E8 03 10 00 00 00 00 00
 (1648943153.046347)  can0  1E5   [8]  1C 05 12 70 00 00 00 DF
 (1648943153.048340)  can0  014   [5]  00 00 00 10 27
 (1648943153.055430)  can0  012   [8]  E8 03 10 00 00 00 00 00
 (1648943153.056350)  can0  1E5   [8]  1C 05 12 10 00 00 00 7F
 (1648943153.058323)  can0  014   [5]  00 00 00 0D 27
 (1648943153.065387)  can0  012   [8]  E8 03 10 00 00 00 00 00
 (1648943153.066313)  can0  1E5   [8]  1C 05 12 30 00 00 00 9F
 (1648943153.068390)  can0  014   [5]  00 00 00 10 27
 (1648943153.075398)  can0  012   [8]  E8 03 10 00 00 00 00 00
 (1648943153.076345)  can0  1E5   [8]  1C 05 12 50 00 00 00 BF
 (1648943153.078403)  can0  014   [5]  00 00 00 10 27
 (1648943153.085433)  can0  012   [8]  E8 03 10 00 00 00 00 00
 (1648943153.086356)  can0  1E5   [8]  1C 05 12 70 00 00 00 DF
 (1648943153.088393)  can0  014   [5]  00 00 00 10 27
 (1648943153.095438)  can0  012   [8]  E8 03 10 00 00 00 00 00
 (1648943153.096363)  can0  1E5   [8]  1C 05 12 10 00 00 00 7F
 (1648943153.098309)  can0  014   [5]  00 00 00 10 27
 (1648943153.105467)  can0  012   [8]  E8 03 10 00 00 00 00 00
 (1648943153.106365)  can0  1E5   [8]  1C 05 12 30 00 00 00 9F
 (1648943153.108326)  can0  014   [5]  00 00 00 10 27
 (1648943153.115414)  can0  012   [8]  E8 03 10 00 00 00 00 00
 (1648943153.116317)  can0  1E5   [8]  1C 05 12 50 00 00 00 BF
 (1648943153.118357)  can0  014   [5]  00 00 00 10 27
 (1648943153.125404)  can0  012   [8]  E8 03 10 00 00 00 00 00
 (1648943153.126378)  can0  1E5   [8]  1C 05 12 70 00 00 00 DF
 (1648943153.128362)  can0  014   [5]  00 00 00 10 27
 (1648943153.135436)  can0  012   [8]  E8 03 10 00 00 00 00 00
 (1648943153.136316)  can0  1E5   [8]  1C 05 12 10 00 00 00 7F
 (1648943153.137888)  can0  010   [4]  54 B9 1D 00
 (1648943153.138159)  can0  005   [8]  01 00 00 00 00 00 00 00
 (1648943153.138359)  can0  014   [5]  00 00 00 13 27
 (1648943153.145459)  can0  012   [8]  E8 03 10 00 00 00 00 00
 (1648943153.145530)  can0  0E3   [2]  AB 00
 (1648943153.146312)  can0  1E5   [8]  1C 05 12 30 00 00 00 9F
 (1648943153.148367)  can0  014   [5]  00 00 00 14 27
 (1648943153.155427)  can0  012   [8]  E8 03 10 00 00 00 00 00
 (1648943153.156311)  can0  1E5   [8]  1C 05 12 50 00 00 00 BF
 (1648943153.158334)  can0  014   [5]  00 00 00 09 27
 (1648943153.165490)  can0  012   [8]  E8 03 10 00 00 00 00 00
 (1648943153.166317)  can0  1E5   [8]  1C 05 12 70 00 00 00 DF
 (1648943153.168367)  can0  014   [5]  00 00 00 10 27
 (1648943153.175403)  can0  012   [8]  E8 03 10 00 00 00 00 00
 (1648943153.176307)  can0  1E5   [8]  1C 05 12 10 00 00 00 7F
 (1648943153.178377)  can0  014   [5]  00 00 00 10 27
 (1648943153.185395)  can0  012   [8]  E8 03 10 00 00 00 00 00
 (1648943153.186314)  can0  1E5   [8]  1C 05 12 30 00 00 00 9F
 (1648943153.188312)  can0  014   [5]  00 00 00 10 27
 (1648943153.195442)  can0  012   [8]  E8 03 10 00 00 00 00 00
 (1648943153.196368)  can0  1E5   [8]  1C 05 12 50 00 00 00 BF
 (1648943153.198410)  can0  014   [5]  00 00 00 10 27
 (1648943153.205429)  can0  012   [8]  E8 03 10 00 00 00 00 00
 (1648943153.206336)  can0  1E5   [8]  1C 05 12 70 00 00 00 DF
 (1648943153.208338)  can0  014   [5]  00 00 00 10 27
 (1648943153.215416)  can0  012   [8]  E8 03 10 00 00 00 00 00
 (1648943153.216317)  can0  1E5   [8]  1C 05 12 10 00 00 00 7F
 (1648943153.218322)  can0  014   [5]  00 00 00 10 27
 (1648943153.225429)  can0  012   [8]  E8 03 10 00 00 00 00 00
 (1648943153.226328)  can0  1E5   [8]  1C 05 12 30 00 00 00 9F
 (1648943153.228314)  can0  014   [5]  00 00 00 10 27
 (1648943153.235407)  can0  012   [8]  E8 03 10 00 00 00 00 00
 (1648943153.236291)  can0  1E5   [8]  1C 05 12 50 00 00 00 BF
 (1648943153.237893)  can0  010   [4]  54 B9 1D 00
 (1648943153.238208)  can0  005   [8]  01 00 00 00 00 00 00 00
 (1648943153.238333)  can0  014   [5]  00 00 00 13 27
 (1648943153.245424)  can0  012   [8]  E8 03 10 00 00 00 00 00
 (1648943153.246330)  can0  1E5   [8]  1C 05 12 70 00 00 00 DF
 (1648943153.248339)  can0  014   [5]  00 00 00 10 27
 (1648943153.255403)  can0  012   [8]  E8 03 10 00 00 00 00 00
 (1648943153.256295)  can0  1E5   [8]  1C 05 12 10 00 00 00 7F
 (1648943153.258338)  can0  014   [5]  00 00 00 0D 27
 (1648943153.265439)  can0  012   [8]  E8 03 10 00 00 00 00 00
 (1648943153.266322)  can0  1E5   [8]  1C 05 12 30 00 00 00 9F
 (1648943153.268326)  can0  014   [5]  00 00 00 10 27
 (1648943153.275417)  can0  012   [8]  E8 03 10 00 00 00 00 00
 (1648943153.276323)  can0  1E5   [8]  1C 05 12 50 00 00 00 BF
 (1648943153.278303)  can0  014   [5]  00 00 00 10 27
 (1648943153.285408)  can0  012   [8]  E8 03 10 00 00 00 00 00
 (1648943153.286295)  can0  1E5   [8]  1C 05 12 70 00 00 00 DF
 (1648943153.288321)  can0  014   [5]  00 00 00 10 27
 (1648943153.295389)  can0  012   [8]  E8 03 10 00 00 00 00 00
 (1648943153.296302)  can0  1E5   [8]  1C 05 12 10 00 00 00 7F
 (1648943153.298327)  can0  014   [5]  00 00 00 10 27
 (1648943153.305404)  can0  012   [8]  E8 03 10 00 00 00 00 00
 (1648943153.306324)  can0  1E5   [8]  1C 05 12 30 00 00 00 9F
 (1648943153.308343)  can0  014   [5]  00 00 00 10 27
 (1648943153.315395)  can0  012   [8]  E8 03 10 00 00 00 00 00
 (1648943153.316327)  can0  1E5   [8]  1C 05 11 50 00 00 00 BE
 (1648943153.318326)  can0  014   [5]  00 00 00 10 27
 (1648943153.325424)  can0  012   [8]  E8 03 10 00 00 00 00 00
 (1648943153.326301)  can0  1E5   [8]  1C 05 12 70 00 00 00 DF
 (1648943153.328329)  can0  014   [5]  00 00 00 10 27
 (1648943153.335386)  can0  012   [8]  E8 03 10 00 00 00 00 00
 (1648943153.336297)  can0  1E5   [8]  1C 05 11 10 00 00 00 7E
 (1648943153.337899)  can0  010   [4]  54 B9 1D 00
 (1648943153.338173)  can0  005   [8]  01 00 00 00 00 00 00 00
 (1648943153.338346)  can0  014   [5]  00 00 00 13 27
 (1648943153.338496)  can0  0E2   [2]  AB 00
 (1648943153.338619)  can0  0E4   [2]  AB 00
 (1648943153.345415)  can0  012   [8]  E8 03 10 00 00 00 00 00
 (1648943153.346303)  can0  1E5   [8]  1C 05 12 30 00 00 00 9F
 (1648943153.348329)  can0  014   [5]  00 00 00 14 27
 (1648943153.355407)  can0  012   [8]  E8 03 10 00 00 00 00 00
 (1648943153.356327)  can0  1E5   [8]  1C 05 12 50 00 00 00 BF
 (1648943153.358320)  can0  014   [5]  00 00 00 09 27
 (1648943153.365440)  can0  012   [8]  E8 03 10 00 00 00 00 00
 (1648943153.366328)  can0  1E5   [8]  1C 05 12 70 00 00 00 DF
 (1648943153.368329)  can0  014   [5]  00 00 00 10 27
 (1648943153.375429)  can0  012   [8]  E8 03 10 00 00 00 00 00
 (1648943153.376306)  can0  1E5   [8]  1C 05 12 10 00 00 00 7F
 (1648943153.378308)  can0  014   [5]  00 00 00 10 27
 (1648943153.385387)  can0  012   [8]  E8 03 10 00 00 00 00 00
 (1648943153.386303)  can0  1E5   [8]  1C 05 12 30 00 00 00 9F
 (1648943153.388328)  can0  014   [5]  00 00 00 10 27
 (1648943153.395409)  can0  012   [8]  E8 03 10 00 00 00 00 00
 (1648943153.396334)  can0  1E5   [8]  1C 05 12 50 00 00 00 BF
 (1648943153.398319)  can0  014   [5]  00 00 00 10 27
 (1648943153.405413)  can0  012   [8]  E8 03 10 00 00 00 00 00
 (1648943153.406304)  can0  1E5   [8]  1C 05 12 70 00 00 00 DF
 (1648943153.408343)  can0  014   [5]  00 00 00 10 27
 (1648943153.415485)  can0  012   [8]  E8 03 10 00 00 00 00 00
 (1648943153.416305)  can0  1E5   [8]  1C 05 12 10 00 00 00 7F
 (1648943153.418307)  can0  014   [5]  00 00 00 10 27
 (1648943153.425436)  can0  012   [8]  E8 03 10 00 00 00 00 00
 (1648943153.426335)  can0  1E5   [8]  1C 05 12 30 00 00 00 9F
 (1648943153.428341)  can0  014   [5]  00 00 00 10 27
 (1648943153.435416)  can0  012   [8]  E8 03 10 00 00 00 00 00
 (1648943153.436308)  can0  1E5   [8]  1C 05 12 50 00 00 00 BF
 (1648943153.437905)  can0  010   [4]  54 B9 1D 00
 (1648943153.438178)  can0  005   [8]  01 00 00 00 00 00 00 00
 (1648943153.438354)  can0  014   [5]  00 00 00 13 27
 (1648943153.445413)  can0  012   [8]  E8 03 10 00 00 00 00 00
 (1648943153.446309)  can0  1E5   [8]  1C 05 12 70 00 00 00 DF
 (1648943153.448348)  can0  014   [5]  00 00 00 10 27
 (1648943153.455415)  can0  012   [8]  E8 03 10 00 00 00 00 00
 (1648943153.456306)  can0  1E5   [8]  1C 05 12 10 00 00 00 7F
 (1648943153.458322)  can0  014   [5]  00 00 00 0D 27
 (1648943153.465443)  can0  012   [8]  E8 03 10 00 00 00 00 00
 (1648943153.466306)  can0  1E5   [8]  1C 05 12 30 00 00 00 9F
 (1648943153.468334)  can0  014   [5]  00 00 00 10 27
 (1648943153.475435)  can0  012   [8]  E8 03 10 00 00 00 00 00
 (1648943153.476304)  can0  1E5   [8]  1C 05 12 50 00 00 00 BF
 (1648943153.478310)  can0  014   [5]  00 00 00 10 27
 (1648943153.485411)  can0  012   [8]  E8 03 10 00 00 00 00 00
 (1648943153.486329)  can0  1E5   [8]  1C 05 12 70 00 00 00 DF
 (1648943153.488303)  can0  014   [5]  00 00 00 10 27
 (1648943153.495408)  can0  012   [8]  E8 03 10 00 00 00 00 00
 (1648943153.496305)  can0  1E5   [8]  1C 05 12 10 00 00 00 7F
 (1648943153.498306)  can0  014   [5]  00 00 00 10 27
 (1648943153.505406)  can0  012   [8]  E8 03 10 00 00 00 00 00
 (1648943153.506302)  can0  1E5   [8]  1C 05 12 30 00 00 00 9F
 (1648943153.508309)  can0  014   [5]  00 00 00 10 27
 (1648943153.515382)  can0  012   [8]  E8 03 10 00 00 00 00 00
 (1648943153.516612)  can0  1E5   [8]  1C 05 12 50 00 00 00 BF
 (1648943153.518325)  can0  014   [5]  00 00 00 10 27
 (1648943153.525408)  can0  012   [8]  E8 03 10 00 00 00 00 00
 (1648943153.526304)  can0  1E5   [8]  1C 05 12 70 00 00 00 DF
 (1648943153.528326)  can0  014   [5]  00 00 00 10 27
 (1648943153.535408)  can0  012   [8]  E8 03 10 00 00 00 00 00
 (1648943153.536302)  can0  1E5   [8]  1C 05 12 10 00 00 00 7F
 (1648943153.537899)  can0  010   [4]  54 B9 1D 00
 (1648943153.538173)  can0  005   [8]  01 00 00 00 00 00 00 00
 (1648943153.538348)  can0  014   [5]  00 00 00 13 27
 (1648943153.545444)  can0  012   [8]  E8 03 10 00 00 00 00 00
 (1648943153.546339)  can0  1E5   [8]  1C 05 12 30 00 00 00 9F
 (1648943153.548365)  can0  014   [5]  00 00 00 10 27
 (1648943153.555412)  can0  012   [8]  E8 03 10 00 00 00 00 00
 (1648943153.556305)  can0  1E5   [8]  1C 05 12 50 00 00 00 BF
 (1648943153.558333)  can0  014   [5]  00 00 00 0D 27
 (1648943153.565387)  can0  012   [8]  E8 03 10 00 00 00 00 00
 (1648943153.566308)  can0  1E5   [8]  1C 05 12 70 00 00 00 DF
 (1648943153.568306)  can0  014   [5]  00 00 00 10 27
 (1648943153.575384)  can0  012   [8]  E8 03 10 00 00 00 00 00
 (1648943153.576301)  can0  1E5   [8]  1C 05 12 10 00 00 00 7F
 (1648943153.578329)  can0  014   [5]  00 00 00 10 27
 (1648943153.585409)  can0  012   [8]  E8 03 10 00 00 00 00 00
 (1648943153.586305)  can0  1E5   [8]  1C 05 12 30 00 00 00 9F
 (1648943153.588302)  can0  014   [5]  00 00 00 10 27
 (1648943153.596307)  can0  012   [8]  E8 03 10 00 00 00 00 00
 (1648943153.596311)  can0  1E5   [8]  1C 05 11 50 00 00 00 BE
 (1648943153.598368)  can0  014   [5]  00 00 00 10 27
 (1648943153.605461)  can0  012   [8]  E8 03 10 00 00 00 00 00
 (1648943153.606442)  can0  1E5   [8]  1C 05 12 70 00 00 00 DF
 (1648943153.608420)  can0  014   [5]  00 00 00 10 27
 (1648943153.615482)  can0  012   [8]  E8 03 10 00 00 00 00 00
 (1648943153.616304)  can0  1E5   [8]  1C 05 12 10 00 00 00 7F
 (1648943153.618329)  can0  014   [5]  00 00 00 10 27
 (1648943153.625392)  can0  012   [8]  E8 03 10 00 00 00 00 00
 (1648943153.626364)  can0  1E5   [8]  1C 05 12 30 00 00 00 9F
 (1648943153.628383)  can0  014   [5]  00 00 00 10 27
 (1648943153.635426)  can0  012   [8]  E8 03 10 00 00 00 00 00
 (1648943153.636370)  can0  1E5   [8]  1C 05 12 50 00 00 00 BF
 (1648943153.637964)  can0  010   [4]  54 B9 1D 00
 (1648943153.638243)  can0  005   [8]  01 00 00 00 00 00 00 00
 (1648943153.638391)  can0  014   [5]  00 00 00 13 27
 (1648943153.645959)  can0  012   [8]  E8 03 10 00 00 00 00 00
 (1648943153.646327)  can0  1E5   [8]  1C 05 12 70 00 00 00 DF
 (1648943153.648348)  can0  014   [5]  00 00 00 10 27
 (1648943153.655465)  can0  012   [8]  E8 03 10 00 00 00 00 00
 (1648943153.656372)  can0  1E5   [8]  1C 05 12 10 00 00 00 7F
 (1648943153.658373)  can0  014   [5]  00 00 00 0D 27
 (1648943153.665440)  can0  012   [8]  E8 03 10 00 00 00 00 00
 (1648943153.666393)  can0  1E5   [8]  1C 05 12 30 00 00 00 9F
 (1648943153.668830)  can0  014   [5]  00 00 00 10 27
 (1648943153.675447)  can0  012   [8]  E8 03 10 00 00 00 00 00
 (1648943153.676326)  can0  1E5   [8]  1C 05 12 50 00 00 00 BF
 (1648943153.678348)  can0  014   [5]  00 00 00 10 27
 (1648943153.685445)  can0  012   [8]  E8 03 10 00 00 00 00 00
 (1648943153.686324)  can0  1E5   [8]  1C 05 12 70 00 00 00 DF
 (1648943153.688380)  can0  014   [5]  00 00 00 10 27
 (1648943153.695480)  can0  012   [8]  E8 03 10 00 00 00 00 00
 (1648943153.696377)  can0  1E5   [8]  1C 05 12 10 00 00 00 7F
 (1648943153.698359)  can0  014   [5]  00 00 00 10 27
 (1648943153.705425)  can0  012   [8]  E8 03 10 00 00 00 00 00
 (1648943153.706371)  can0  1E5   [8]  1C 05 12 30 00 00 00 9F
 (1648943153.708406)  can0  014   [5]  00 00 00 10 27
 (1648943153.715468)  can0  012   [8]  E8 03 10 00 00 00 00 00
 (1648943153.716400)  can0  1E5   [8]  1C 05 12 50 00 00 00 BF
 (1648943153.718371)  can0  014   [5]  00 00 00 10 27
 (1648943153.725447)  can0  012   [8]  E8 03 10 00 00 00 00 00
 (1648943153.726386)  can0  1E5   [8]  1C 05 12 70 00 00 00 DF
 (1648943153.728402)  can0  014   [5]  00 00 00 10 27
 (1648943153.735594)  can0  012   [8]  E8 03 10 00 00 00 00 00
 (1648943153.736401)  can0  1E5   [8]  1C 05 12 10 00 00 00 7F
 (1648943153.738011)  can0  010   [4]  54 B9 1D 00
 (1648943153.738262)  can0  005   [8]  01 00 00 00 00 00 00 00
 (1648943153.738396)  can0  014   [5]  00 00 00 13 27
 (1648943153.745479)  can0  012   [8]  E8 03 10 00 00 00 00 00
 (1648943153.746329)  can0  1E5   [8]  1C 05 11 30 00 00 00 9E
 (1648943153.748352)  can0  014   [5]  00 00 00 10 27
 (1648943153.755484)  can0  012   [8]  E8 03 10 00 00 00 00 00
 (1648943153.756395)  can0  1E5   [8]  1C 05 12 50 00 00 00 BF
 (1648943153.758352)  can0  014   [5]  00 00 00 0D 27
 (1648943153.765475)  can0  012   [8]  E8 03 10 00 00 00 00 00
 (1648943153.766443)  can0  1E5   [8]  1C 05 12 70 00 00 00 DF
 (1648943153.768380)  can0  014   [5]  00 00 00 10 27
 (1648943153.775413)  can0  012   [8]  E8 03 10 00 00 00 00 00
 (1648943153.776329)  can0  1E5   [8]  1C 05 12 10 00 00 00 7F
 (1648943153.778423)  can0  014   [5]  00 00 00 10 27
 (1648943153.785468)  can0  012   [8]  E8 03 10 00 00 00 00 00
 (1648943153.786364)  can0  1E5   [8]  1C 05 12 30 00 00 00 9F
 (1648943153.788330)  can0  014   [5]  00 00 00 10 27
 (1648943153.795458)  can0  012   [8]  E8 03 10 00 00 00 00 00
 (1648943153.796359)  can0  1E5   [8]  1C 05 12 50 00 00 00 BF
 (1648943153.798399)  can0  014   [5]  00 00 00 10 27
 (1648943153.805461)  can0  012   [8]  E8 03 10 00 00 00 00 00
 (1648943153.806381)  can0  1E5   [8]  1C 05 12 70 00 00 00 DF
 (1648943153.808336)  can0  014   [5]  00 00 00 10 27
 (1648943153.815473)  can0  012   [8]  E8 03 10 00 00 00 00 00
 (1648943153.816359)  can0  1E5   [8]  1C 05 12 10 00 00 00 7F
 (1648943153.818398)  can0  014   [5]  00 00 00 10 27
 (1648943153.825425)  can0  012   [8]  E8 03 10 00 00 00 00 00
 (1648943153.826344)  can0  1E5   [8]  1C 05 12 30 00 00 00 9F
 (1648943153.828384)  can0  014   [5]  00 00 00 10 27
 (1648943153.835483)  can0  012   [8]  E8 03 10 00 00 00 00 00
 (1648943153.836339)  can0  1E5   [8]  1C 05 12 50 00 00 00 BF
 (1648943153.837945)  can0  010   [4]  54 B9 1D 00
 (1648943153.838182)  can0  005   [8]  01 00 00 00 00 00 00 00
 (1648943153.838376)  can0  014   [5]  00 00 00 13 27
 (1648943153.845529)  can0  012   [8]  E8 03 10 00 00 00 00 00
 (1648943153.846430)  can0  1E5   [8]  1C 05 12 70 00 00 00 DF
 (1648943153.848385)  can0  014   [5]  00 00 00 10 27
 (1648943153.856263)  can0  012   [8]  E8 03 10 00 00 00 00 00
 (1648943153.856333)  can0  1E5   [8]  1C 05 12 10 00 00 00 7F
 (1648943153.858343)  can0  014   [5]  00 00 00 0D 27
 (1648943153.865458)  can0  012   [8]  E8 03 10 00 00 00 00 00
 (1648943153.866362)  can0  1E5   [8]  1C 05 12 30 00 00 00 9F
 (1648943153.868379)  can0  014   [5]  00 00 00 10 27
 (1648943153.875423)  can0  012   [8]  E8 03 10 00 00 00 00 00
 (1648943153.876404)  can0  1E5   [8]  1C 05 12 50 00 00 00 BF
 (1648943153.878388)  can0  014   [5]  00 00 00 10 27
 (1648943153.885470)  can0  012   [8]  E8 03 10 00 00 00 00 00
 (1648943153.886313)  can0  1E5   [8]  1C 05 12 70 00 00 00 DF
 (1648943153.888363)  can0  014   [5]  00 00 00 10 27
 (1648943153.895481)  can0  012   [8]  E8 03 10 00 00 00 00 00
