 (1648942840.842543)  can0  1E5   [8]  1C FF BE 50 00 00 02 65
 (1648942840.844264)  can0  014   [5]  00 00 00 10 27
 (1648942840.851375)  can0  012   [8]  E8 03 10 00 00 00 00 00
 (1648942840.852549)  can0  1E5   [8]  1C FF BE 70 00 00 02 85
 (1648942840.854246)  can0  014   [5]  00 00 00 10 27
 (1648942840.861350)  can0  012   [8]  E8 03 10 00 00 00 00 00
 (1648942840.862510)  can0  1E5   [8]  1C FF BE 10 00 00 02 25
 (1648942840.864207)  can0  014   [5]  00 00 00 10 27
 (1648942840.871357)  can0  012   [8]  E8 03 10 00 00 00 00 00
 (1648942840.872531)  can0  1E5   [8]  1C FF BE 30 00 00 02 45
 (1648942840.874250)  can0  014   [5]  00 00 00 10 27
 (1648942840.881307)  can0  012   [8]  E8 03 10 00 00 00 00 00
 (1648942840.882517)  can0  1E5   [8]  1C FF BE 50 00 00 02 65
 (1648942840.884236)  can0  014   [5]  00 00 00 10 27
 (1648942840.891353)  can0  012   [8]  E8 03 10 00 00 00 00 00
 (1648942840.892545)  can0  1E5   [8]  1C FF BE 70 00 00 02 85
 (1648942840.894293)  can0  014   [5]  00 00 00 10 27
 (1648942840.901368)  can0  012   [8]  E8 03 10 00 00 00 00 00
 (1648942840.902560)  can0  1E5   [8]  1C FF BE 10 00 00 02 25
 (1648942840.903912)  can0  010   [4]  45 A2 13 00
 (1648942840.904216)  can0  005   [8]  01 00 00 00 00 00 00 00
 (1648942840.904319)  can0  014   [5]  FF 0F 00 13 27
 (1648942840.911351)  can0  012   [8]  E8 03 10 00 00 00 00 00
 (1648942840.912507)  can0  1E5   [8]  1C FF BE 30 00 00 02 45
 (1648942840.914235)  can0  014   [5]  00 00 00 10 27
 (1648942840.921347)  can0  012   [8]  E8 03 10 00 00 00 00 00
 (1648942840.922540)  can0  1E5   [8]  1C FF BE 50 00 00 02 65
 (1648942840.924280)  can0  014   [5]  00 00 00 0D 27
 (1648942840.931313)  can0  012   [8]  E8 03 10 00 00 00 00 00
 (1648942840.932526)  can0  1E5   [8]  1C FF BE 70 00 00 02 85
 (1648942840.934257)  can0  014   [5]  00 00 00 10 27
 (1648942840.941367)  can0  012   [8]  E8 03 10 00 00 00 00 00
 (1648942840.942560)  can0  1E5   [8]  1C FF BE 10 00 00 02 25
 (1648942840.944286)  can0  014   [5]  00 00 00 10 27
 (1648942840.951384)  can0  012   [8]  E8 03 10 00 00 00 00 00
 (1648942840.952563)  can0  1E5   [8]  1C FF BE 30 00 00 02 45
 (1648942840.954284)  can0  014   [5]  00 00 00 10 27
 (1648942840.961367)  can0  012   [8]  E8 03 10 00 00 00 00 00
 (1648942840.962523)  can0  1E5   [8]  1C FF BE 50 00 00 02 65
 (1648942840.964324)  can0  014   [5]  00 00 00 10 27
 (1648942840.971330)  can0  012   [8]  E8 03 10 00 00 00 00 00
 (1648942840.972516)  can0  1E5   [8]  1C FF BE 70 00 00 02 85
 (1648942840.974242)  can0  014   [5]  00 00 00 10 27
 (1648942840.981318)  can0  012   [8]  E8 03 10 00 00 00 00 00
 (1648942840.982577)  can0  1E5   [8]  1C FF BE 10 00 00 02 25
 (1648942840.984306)  can0  014   [5]  00 00 00 10 27
 (1648942840.991371)  can0  012   [8]  E8 03 10 00 00 00 00 00
 (1648942840.992559)  can0  1E5   [8]  1C FF BE 30 00 00 02 45
 (1648942840.994257)  can0  014   [5]  00 00 00 10 27
 (1648942841.001381)  can0  012   [8]  E8 03 10 00 00 00 00 00
 (1648942841.002507)  can0  1E5   [8]  1C FF BE 50 00 00 02 65
 (1648942841.003902)  can0  010   [4]  45 A2 13 00
 (1648942841.004143)  can0  005   [8]  01 00 00 00 00 00 00 00
 (1648942841.004345)  can0  014   [5]  00 00 00 13 27
 (1648942841.011396)  can0  012   [8]  E8 03 10 00 00 00 00 00
 (1648942841.012571)  can0  1E5   [8]  1C FF BE 70 00 00 02 85
 (1648942841.014248)  can0  014   [5]  00 00 00 10 27
 (1648942841.021377)  can0  012   [8]  E8 03 10 00 00 00 00 00
 (1648942841.022544)  can0  1E5   [8]  1C FF BE 10 00 00 02 25
 (1648942841.024290)  can0  014   [5]  00 00 00 0D 27
 (1648942841.031338)  can0  012   [8]  E8 03 10 00 00 00 00 00
 (1648942841.032536)  can0  1E5   [8]  1C FF BE 30 00 00 02 45
 (1648942841.034303)  can0  014   [5]  00 00 00 10 27
 (1648942841.041374)  can0  012   [8]  E8 03 10 00 00 00 00 00
 (1648942841.042567)  can0  1E5   [8]  1C FF BE 50 00 00 02 65
 (1648942841.044272)  can0  014   [5]  00 00 00 10 27
 (1648942841.051391)  can0  012   [8]  E8 03 10 00 00 00 00 00
 (1648942841.052580)  can0  1E5   [8]  1C FF BE 70 00 00 02 85
 (1648942841.054334)  can0  014   [5]  00 00 00 10 27
 (1648942841.061364)  can0  012   [8]  E8 03 10 00 00 00 00 00
 (1648942841.062577)  can0  1E5   [8]  1C FF BE 10 00 00 02 25
 (1648942841.064257)  can0  014   [5]  00 00 00 10 27
 (1648942841.071431)  can0  012   [8]  E8 03 10 00 00 00 00 00
 (1648942841.072496)  can0  1E5   [8]  1C FF BE 30 00 00 02 45
 (1648942841.074289)  can0  014   [5]  00 00 00 10 27
 (1648942841.081371)  can0  012   [8]  E8 03 10 00 00 00 00 00
 (1648942841.082591)  can0  1E5   [8]  1C FF BE 50 00 00 02 65
 (1648942841.084264)  can0  014   [5]  00 00 00 10 27
 (1648942841.091377)  can0  012   [8]  E8 03 10 00 00 00 00 00
 (1648942841.092570)  can0  1E5   [8]  1C FF BE 70 00 00 02 85
 (1648942841.094273)  can0  014   [5]  00 00 00 10 27
 (1648942841.101384)  can0  012   [8]  E8 03 10 00 00 00 00 00
 (1648942841.102508)  can0  1E5   [8]  1C FF BE 10 00 00 02 25
 (1648942841.103882)  can0  010   [4]  45 A2 13 00
 (1648942841.104147)  can0  005   [8]  01 00 00 00 00 00 00 00
 (1648942841.104350)  can0  014   [5]  00 00 00 13 27
 (1648942841.111437)  can0  012   [8]  E8 03 10 00 00 00 00 00
 (1648942841.112570)  can0  1E5   [8]  1C FF BE 30 00 00 02 45
 (1648942841.114301)  can0  014   [5]  00 00 00 10 27
 (1648942841.121389)  can0  012   [8]  E8 03 10 00 00 00 00 00
 (1648942841.122617)  can0  1E5   [8]  1C FF BE 50 00 00 02 65
 (1648942841.124278)  can0  014   [5]  00 00 00 0D 27
 (1648942841.131327)  can0  012   [8]  E8 03 10 00 00 00 00 00
 (1648942841.132513)  can0  1E5   [8]  1C FF BE 70 00 00 02 85
 (1648942841.134310)  can0  014   [5]  00 00 00 10 27
 (1648942841.141380)  can0  012   [8]  E8 03 10 00 00 00 00 00
 (1648942841.142549)  can0  1E5   [8]  1C FF BE 10 00 00 02 25
 (1648942841.144257)  can0  014   [5]  00 00 00 10 27
 (1648942841.151402)  can0  012   [8]  E8 03 10 00 00 00 00 00
 (1648942841.152533)  can0  1E5   [8]  1C FF BE 30 00 00 02 45
 (1648942841.154301)  can0  014   [5]  00 00 00 10 27
 (1648942841.161418)  can0  012   [8]  E8 03 10 00 00 00 00 00
 (1648942841.162556)  can0  1E5   [8]  1C FF BE 50 00 00 02 65
 (1648942841.164230)  can0  014   [5]  00 00 00 10 27
 (1648942841.171374)  can0  012   [8]  E8 03 10 00 00 00 00 00
 (1648942841.172556)  can0  1E5   [8]  1C FF BE 70 00 00 02 85
 (1648942841.174255)  can0  014   [5]  00 00 00 10 27
 (1648942841.181341)  can0  012   [8]  E8 03 10 00 00 00 00 00
 (1648942841.182548)  can0  1E5   [8]  1C FF BE 10 00 00 02 25
 (1648942841.184240)  can0  014   [5]  00 00 00 10 27
 (1648942841.191343)  can0  012   [8]  E8 03 10 00 00 00 00 00
 (1648942841.192537)  can0  1E5   [8]  1C FF BE 30 00 00 02 45
 (1648942841.194238)  can0  014   [5]  00 00 00 10 27
 (1648942841.201345)  can0  012   [8]  E8 03 10 00 00 00 00 00
 (1648942841.202520)  can0  1E5   [8]  1C FF BE 50 00 00 02 65
 (1648942841.203941)  can0  010   [4]  45 A2 13 00
 (1648942841.204171)  can0  005   [8]  01 00 00 00 00 00 00 00
 (1648942841.204360)  can0  014   [5]  00 00 00 13 27
 (1648942841.211385)  can0  012   [8]  E8 03 10 00 00 00 00 00
 (1648942841.212534)  can0  1E5   [8]  1C FF BE 70 00 00 02 85
 (1648942841.214306)  can0  014   [5]  00 00 00 10 27
 (1648942841.221392)  can0  012   [8]  E8 03 10 00 00 00 00 00
 (1648942841.222575)  can0  1E5   [8]  1C FF BE 10 00 00 02 25
 (1648942841.224278)  can0  014   [5]  00 00 00 0D 27
 (1648942841.231343)  can0  012   [8]  E8 03 10 00 00 00 00 00
 (1648942841.232590)  can0  1E5   [8]  1C FF BE 30 00 00 02 45
 (1648942841.234295)  can0  014   [5]  00 00 00 10 27
 (1648942841.241424)  can0  012   [8]  E8 03 10 00 00 00 00 00
 (1648942841.242580)  can0  1E5   [8]  1C FF BE 50 00 00 02 65
 (1648942841.244291)  can0  014   [5]  00 00 00 10 27
 (1648942841.251390)  can0  012   [8]  E8 03 10 00 00 00 00 00
 (1648942841.252522)  can0  1E5   [8]  1C FF BE 70 00 00 02 85
 (1648942841.254245)  can0  014   [5]  00 00 00 10 27
 (1648942841.261427)  can0  012   [8]  E8 03 10 00 00 00 00 00
 (1648942841.262540)  can0  1E5   [8]  1C FF BE 10 00 00 02 25
 (1648942841.264292)  can0  014   [5]  00 00 00 10 27
 (1648942841.271399)  can0  012   [8]  E8 03 10 00 00 00 00 00
 (1648942841.272548)  can0  1E5   [8]  1C FF BE 30 00 00 02 45
 (1648942841.274307)  can0  014   [5]  00 00 00 10 27
 (1648942841.281346)  can0  012   [8]  E8 03 10 00 00 00 00 00
 (1648942841.282526)  can0  1E5   [8]  1C FF BE 50 00 00 02 65
 (1648942841.284248)  can0  014   [5]  00 00 00 10 27
 (1648942841.291434)  can0  012   [8]  E8 03 10 00 00 00 00 00
 (1648942841.292562)  can0  1E5   [8]  1C FF BE 70 00 00 02 85
 (1648942841.294300)  can0  014   [5]  00 00 00 10 27
 (1648942841.301388)  can0  012   [8]  E8 03 10 00 00 00 00 00
 (1648942841.302533)  can0  1E5   [8]  1C FF BE 10 00 00 02 25
 (1648942841.303954)  can0  010   [4]  45 A2 13 00
 (1648942841.304165)  can0  005   [8]  01 00 00 00 00 00 00 00
 (1648942841.304362)  can0  014   [5]  00 00 00 13 27
 (1648942841.311379)  can0  012   [8]  E8 03 10 00 00 00 00 00
 (1648942841.311519)  can0  0E3   [2]  83 00
 (1648942841.312533)  can0  1E5   [8]  1C FF BE 30 00 00 02 45
 (1648942841.314305)  can0  014   [5]  00 00 00 14 27
 (1648942841.321393)  can0  012   [8]  E8 03 10 00 00 00 00 00
 (1648942841.322519)  can0  1E5   [8]  1C FF BE 50 00 00 02 65
 (1648942841.324244)  can0  014   [5]  00 00 00 09 27
 (1648942841.331361)  can0  012   [8]  E8 03 10 00 00 00 00 00
 (1648942841.332524)  can0  1E5   [8]  1C FF BE 70 00 00 02 85
 (1648942841.334304)  can0  014   [5]  00 00 00 10 27
 (1648942841.341356)  can0  012   [8]  E8 03 10 00 00 00 00 00
 (1648942841.342558)  can0  1E5   [8]  1C FF BE 10 00 00 02 25
 (1648942841.344281)  can0  014   [5]  00 00 00 10 27
 (1648942841.351362)  can0  012   [8]  E8 03 10 00 00 00 00 00
 (1648942841.352530)  can0  1E5   [8]  1C FF BE 30 00 00 02 45
 (1648942841.354276)  can0  014   [5]  00 00 00 10 27
 (1648942841.361382)  can0  012   [8]  E8 03 10 00 00 00 00 00
 (1648942841.362528)  can0  1E5   [8]  1C FF BE 50 00 00 02 65
 (1648942841.364340)  can0  014   [5]  00 00 00 10 27
 (1648942841.371402)  can0  012   [8]  E8 03 10 00 00 00 00 00
 (1648942841.372567)  can0  1E5   [8]  1C FF BE 70 00 00 02 85
 (1648942841.374320)  can0  014   [5]  00 00 00 10 27
 (1648942841.381349)  can0  012   [8]  E8 03 10 00 00 00 00 00
 (1648942841.382546)  can0  1E5   [8]  1C FF BE 10 00 00 02 25
 (1648942841.384287)  can0  014   [5]  00 00 00 10 27
 (1648942841.391396)  can0  012   [8]  E8 03 10 00 00 00 00 00
 (1648942841.392564)  can0  1E5   [8]  1C FF BE 30 00 00 02 45
 (1648942841.394294)  can0  014   [5]  00 00 00 10 27
 (1648942841.401398)  can0  012   [8]  E8 03 10 00 00 00 00 00
 (1648942841.402590)  can0  1E5   [8]  1C FF BE 50 00 00 02 65
 (1648942841.403953)  can0  010   [4]  45 A2 13 00
 (1648942841.404220)  can0  005   [8]  01 00 00 00 00 00 00 00
 (1648942841.404381)  can0  014   [5]  00 00 00 13 27
 (1648942841.411394)  can0  012   [8]  E8 03 10 00 00 00 00 00
 (1648942841.412567)  can0  1E5   [8]  1C FF BE 70 00 00 02 85
 (1648942841.414282)  can0  014   [5]  00 00 00 10 27
 (1648942841.421404)  can0  012   [8]  E8 03 10 00 00 00 00 00
 (1648942841.422561)  can0  1E5   [8]  1C FF BE 10 00 00 02 25
 (1648942841.424292)  can0  014   [5]  00 00 00 0D 27
 (1648942841.431351)  can0  012   [8]  E8 03 10 00 00 00 00 00
 (1648942841.432545)  can0  1E5   [8]  1C FF BE 30 00 00 02 45
 (1648942841.434255)  can0  014   [5]  00 00 00 10 27
 (1648942841.441437)  can0  012   [8]  E8 03 10 00 00 00 00 00
 (1648942841.442550)  can0  1E5   [8]  1C FF BE 50 00 00 02 65
 (1648942841.444297)  can0  014   [5]  00 00 00 10 27
 (1648942841.451365)  can0  012   [8]  E8 03 10 00 00 00 00 00
 (1648942841.452575)  can0  1E5   [8]  1C FF BE 70 00 00 02 85
 (1648942841.454366)  can0  014   [5]  00 00 00 10 27
 (1648942841.461399)  can0  012   [8]  E8 03 10 00 00 00 00 00
 (1648942841.462535)  can0  1E5   [8]  1C FF BE 10 00 00 02 25
 (1648942841.464273)  can0  014   [5]  00 00 00 10 27
 (1648942841.471396)  can0  012   [8]  E8 03 10 00 00 00 00 00
 (1648942841.472561)  can0  1E5   [8]  1C FF BE 30 00 00 02 45
 (1648942841.474332)  can0  014   [5]  00 00 00 10 27
 (1648942841.481397)  can0  012   [8]  E8 03 10 00 00 00 00 00
 (1648942841.482583)  can0  1E5   [8]  1C FF BE 50 00 00 02 65
 (1648942841.484258)  can0  014   [5]  00 00 00 10 27
 (1648942841.491403)  can0  012   [8]  E8 03 10 00 00 00 00 00
 (1648942841.492566)  can0  1E5   [8]  1C FF BE 70 00 00 02 85
 (1648942841.494300)  can0  014   [5]  00 00 00 10 27
 (1648942841.501400)  can0  012   [8]  E8 03 10 00 00 00 00 00
 (1648942841.502536)  can0  1E5   [8]  1C FF BE 10 00 00 02 25
 (1648942841.503967)  can0  010   [4]  45 A2 13 00
 (1648942841.504187)  can0  005   [8]  01 00 00 00 00 00 00 00
 (1648942841.504372)  can0  014   [5]  00 00 00 13 27
 (1648942841.504497)  can0  0E2   [2]  83 00
 (1648942841.504625)  can0  0E4   [2]  83 00
 (1648942841.511447)  can0  012   [8]  E8 03 10 00 00 00 00 00
 (1648942841.512577)  can0  1E5   [8]  1C FF BE 30 00 00 02 45
 (1648942841.514280)  can0  014   [5]  00 00 00 14 27
 (1648942841.521412)  can0  012   [8]  E8 03 10 00 00 00 00 00
 (1648942841.522564)  can0  1E5   [8]  1C FF BE 50 00 00 02 65
 (1648942841.524293)  can0  014   [5]  00 00 00 09 27
 (1648942841.531357)  can0  012   [8]  E8 03 10 00 00 00 00 00
 (1648942841.532553)  can0  1E5   [8]  1C FF BE 70 00 00 02 85
 (1648942841.534321)  can0  014   [5]  00 00 00 10 27
 (1648942841.541565)  can0  012   [8]  E8 03 10 00 00 00 00 00
 (1648942841.542554)  can0  1E5   [8]  1C FF BE 10 00 00 02 25
 (1648942841.544255)  can0  014   [5]  00 00 00 10 27
 (1648942841.551412)  can0  012   [8]  E8 03 10 00 00 00 00 00
 (1648942841.552557)  can0  1E5   [8]  1C FF BE 30 00 00 02 45
 (1648942841.554316)  can0  014   [5]  00 00 00 10 27
 (1648942841.561397)  can0  012   [8]  E8 03 10 00 00 00 00 00
 (1648942841.562566)  can0  1E5   [8]  1C FF BE 50 00 00 02 65
 (1648942841.564283)  can0  014   [5]  00 00 00 10 27
 (1648942841.571411)  can0  012   [8]  E8 03 10 00 00 00 00 00
 (1648942841.572568)  can0  1E5   [8]  1C FF BE 70 00 00 02 85
 (1648942841.574326)  can0  014   [5]  00 00 00 10 27
 (1648942841.581359)  can0  012   [8]  E8 03 10 00 00 00 00 00
 (1648942841.582543)  can0  1E5   [8]  1C FF BE 10 00 00 02 25
 (1648942841.584274)  can0  014   [5]  00 00 00 10 27
 (1648942841.591413)  can0  012   [8]  E8 03 10 00 00 00 00 00
 (1648942841.592621)  can0  1E5   [8]  1C FF BE 30 00 00 02 45
 (1648942841.594332)  can0  014   [5]  00 00 00 10 27
 (1648942841.601374)  can0  012   [8]  E8 03 10 00 00 00 00 00
 (1648942841.602542)  can0  1E5   [8]  1C FF BE 50 00 00 02 65
 (1648942841.603913)  can0  010   [4]  45 A2 13 00
 (1648942841.604195)  can0  005   [8]  01 00 00 00 00 00 00 00
 (1648942841.604360)  can0  014   [5]  00 00 00 13 27
 (1648942841.611410)  can0  012   [8]  E8 03 10 00 00 00 00 00
 (1648942841.612584)  can0  1E5   [8]  1C FF BE 70 00 00 02 85
 (1648942841.614283)  can0  014   [5]  00 00 00 10 27
 (1648942841.621403)  can0  012   [8]  E8 03 10 00 00 00 00 00
 (1648942841.622582)  can0  1E5   [8]  1C FF BE 10 00 00 02 25
 (1648942841.624311)  can0  014   [5]  00 00 00 0D 27
 (1648942841.631371)  can0  012   [8]  E8 03 10 00 00 00 00 00
 (1648942841.632606)  can0  1E5   [8]  1C FF BE 30 00 00 02 45
 (1648942841.634313)  can0  014   [5]  00 00 00 10 27
 (1648942841.641541)  can0  012   [8]  E8 03 10 00 00 00 00 00
 (1648942841.642624)  can0  1E5   [8]  1C FF BE 50 00 00 02 65
 (1648942841.644269)  can0  014   [5]  00 00 00 10 27
 (1648942841.651406)  can0  012   [8]  E8 03 10 00 00 00 00 00
 (1648942841.652583)  can0  1E5   [8]  1C FF BE 70 00 00 02 85
 (1648942841.654354)  can0  014   [5]  00 00 00 10 27
 (1648942841.661412)  can0  012   [8]  E8 03 10 00 00 00 00 00
 (1648942841.662577)  can0  1E5   [8]  1C FF BE 10 00 00 02 25
 (1648942841.664266)  can0  014   [5]  00 00 00 10 27
 (1648942841.671470)  can0  012   [8]  E8 03 10 00 00 00 00 00
 (1648942841.672541)  can0  1E5   [8]  1C FF BE 30 00 00 02 45
 (1648942841.674260)  can0  014   [5]  00 00 00 10 27
 (1648942841.681375)  can0  012   [8]  E8 03 10 00 00 00 00 00
 (1648942841.682557)  can0  1E5   [8]  1C FF BE 50 00 00 02 65
 (1648942841.684277)  can0  014   [5]  00 00 00 10 27
 (1648942841.691417)  can0  012   [8]  E8 03 10 00 00 00 00 00
 (1648942841.692554)  can0  1E5   [8]  1C FF BE 70 00 00 02 85
 (1648942841.694338)  can0  014   [5]  00 00 00 10 27
 (1648942841.701381)  can0  012   [8]  E8 03 10 00 00 00 00 00
 (1648942841.702549)  can0  1E5   [8]  1C FF BE 10 00 00 02 25
 (1648942841.703969)  can0  010   [4]  45 A2 13 00
 (1648942841.704201)  can0  005   [8]  01 00 00 00 00 00 00 00
 (1648942841.704372)  can0  014   [5]  00 00 00 13 27
 (1648942841.711387)  can0  012   [8]  E8 03 10 00 00 00 00 00
 (1648942841.712591)  can0  1E5   [8]  1C FF BE 30 00 00 02 45
 (1648942841.714281)  can0  014   [5]  00 00 00 10 27
 (1648942841.721463)  can0  012   [8]  E8 03 10 00 00 00 00 00
 (1648942841.722591)  can0  1E5   [8]  1C FF BE 50 00 00 02 65
 (1648942841.724311)  can0  014   [5]  00 00 00 0D 27
 (1648942841.731382)  can0  012   [8]  E8 03 10 00 00 00 00 00
 (1648942841.732589)  can0  1E5   [8]  1C FF BE 70 00 00 02 85
 (1648942841.734280)  can0  014   [5]  00 00 00 10 27
 (1648942841.741394)  can0  012   [8]  E8 03 10 00 00 00 00 00
 (1648942841.742588)  can0  1E5   [8]  1C FF BE 10 00 00 02 25
 (1648942841.744319)  can0  014   [5]  00 00 00 10 27
 (1648942841.751381)  can0  012   [8]  E8 03 10 00 00 00 00 00
 (1648942841.752576)  can0  1E5   [8]  1C FF BE 30 00 00 02 45
 (1648942841.754277)  can0  014   [5]  00 00 00 10 27
 (1648942841.761419)  can0  012   [8]  E8 03 10 00 00 00 00 00
 (1648942841.762548)  can0  1E5   [8]  1C FF BE 50 00 00 02 65
 (1648942841.764286)  can0  014   [5]  00 00 00 10 27
 (1648942841.771415)  can0  012   [8]  E8 03 10 00 00 00 00 00
 (1648942841.772606)  can0  1E5   [8]  1C FF BE 70 00 00 02 85
 (1648942841.774310)  can0  014   [5]  00 00 00 10 27
 (1648942841.781356)  can0  012   [8]  E8 03 10 00 00 00 00 00
 (1648942841.782593)  can0  1E5   [8]  1C FF BE 10 00 00 02 25
 (1648942841.784281)  can0  014   [5]  00 00 00 10 27
 (1648942841.791423)  can0  012   [8]  E8 03 10 00 00 00 00 00
 (1648942841.792642)  can0  1E5   [8]  1C FF BE 30 00 00 02 45
 (1648942841.794361)  can0  014   [5]  00 00 00 10 27
 (1648942841.801363)  can0  012   [8]  E8 03 10 00 00 00 00 00
 (1648942841.802590)  can0  1E5   [8]  1C FF BE 50 00 00 02 65
 (1648942841.803970)  can0  010   [4]  45 A2 13 00
 (1648942841.804197)  can0  005   [8]  01 00 00 00 00 00 00 00
 (1648942841.804402)  can0  014   [5]  00 00 00 13 27
 (1648942841.811412)  can0  012   [8]  E8 03 10 00 00 00 00 00
 (1648942841.812569)  can0  1E5   [8]  1C FF BE 70 00 00 02 85
 (1648942841.814279)  can0  014   [5]  00 00 00 10 27
 (1648942841.821410)  can0  012   [8]  E8 03 10 00 00 00 00 00
 (1648942841.822577)  can0  1E5   [8]  1C FF BE 10 00 00 02 25
 (1648942841.824313)  can0  014   [5]  00 00 00 0D 27
 (1648942841.831375)  can0  012   [8]  E8 03 10 00 00 00 00 00
 (1648942841.832529)  can0  1E5   [8]  1C FF BE 30 00 00 02 45
 (1648942841.834316)  can0  014   [5]  00 00 00 10 27
 (1648942841.841402)  can0  012   [8]  E8 03 10 00 00 00 00 00
 (1648942841.842550)  can0  1E5   [8]  1C FF BE 50 00 00 02 65
 (1648942841.844324)  can0  014   [5]  00 00 00 10 27
 (1648942841.851430)  can0  012   [8]  E8 03 10 00 00 00 00 00
 (1648942841.852561)  can0  1E5   [8]  1C FF C0 70 01 00 02 88
 (1648942841.854320)  can0  014   [5]  00 00 00 10 27
 (1648942841.861428)  can0  012   [8]  E8 03 10 00 00 00 00 00
 (1648942841.862553)  can0  1E5   [8]  1C FF BE 10 00 00 02 25
 (1648942841.864281)  can0  014   [5]  00 00 00 10 27
 (1648942841.871422)  can0  012   [8]  E8 03 10 00 00 00 00 00
 (1648942841.872574)  can0  1E5   [8]  1C FF BE 30 00 00 02 45
 (1648942841.874317)  can0  014   [5]  00 00 00 10 27
 (1648942841.881358)  can0  012   [8]  E8 03 10 00 00 00 00 00
 (1648942841.882592)  can0  1E5   [8]  1C FF BE 50 00 00 02 65
 (1648942841.884374)  can0  014   [5]  00 00 00 10 27
 (1648942841.891597)  can0  012   [8]  E8 03 10 00 00 00 00 00
 (1648942841.892582)  can0  1E5   [8]  1C FF BE 70 00 00 02 85
 (1648942841.894328)  can0  014   [5]  00 00 00 10 27
 (1648942841.901421)  can0  012   [8]  E8 03 10 00 00 00 00 00
 (1648942841.902614)  can0  1E5   [8]  1C FF BE 10 00 00 02 25
 (1648942841.903940)  can0  010   [4]  45 A2 13 00
 (1648942841.904214)  can0  005   [8]  01 00 00 00 00 00 00 00
 (1648942841.904381)  can0  014   [5]  00 00 00 13 27
 (1648942841.911403)  can0  012   [8]  E8 03 10 00 00 00 00 00
 (1648942841.912574)  can0  1E5   [8]  1C FF BE 30 00 00 02 45
 (1648942841.914287)  can0  014   [5]  00 00 00 10 27
 (1648942841.921438)  can0  012   [8]  E8 03 10 00 00 00 00 00
 (1648942841.922554)  can0  1E5   [8]  1C FF BE 50 00 00 02 65
 (1648942841.924276)  can0  014   [5]  00 00 00 0D 27
 (1648942841.931407)  can0  012   [8]  E8 03 10 00 00 00 00 00
 (1648942841.932600)  can0  1E5   [8]  1C FF BE 70 00 00 02 85
 (1648942841.934347)  can0  014   [5]  00 00 00 10 27
 (1648942841.941591)  can0  012   [8]  E8 03 10 00 00 00 00 00
 (1648942841.942581)  can0  1E5   [8]  1C FF BE 10 00 00 02 25
 (1648942841.944334)  can0  014   [5]  00 00 00 10 27
 (1648942841.951442)  can0  012   [8]  E8 03 10 00 00 00 00 00
 (1648942841.952586)  can0  1E5   [8]  1C FF BE 30 00 00 02 45
 (1648942841.954291)  can0  014   [5]  00 00 00 10 27
 (1648942841.961407)  can0  012   [8]  E8 03 10 00 00 00 00 00
 (1648942841.962544)  can0  1E5   [8]  1C FF BE 50 00 00 02 65
 (1648942841.964282)  can0  014   [5]  00 00 00 10 27
 (1648942841.971449)  can0  012   [8]  E8 03 10 00 00 00 00 00
 (1648942841.972579)  can0  1E5   [8]  1C FF C0 70 00 00 02 87
 (1648942841.974328)  can0  014   [5]  00 00 00 10 27
 (1648942841.981394)  can0  012   [8]  E8 03 10 00 00 00 00 00
 (1648942841.982546)  can0  1E5   [8]  1C FF BE 10 00 00 02 25
 (1648942841.984291)  can0  014   [5]  00 00 00 10 27
 (1648942841.991407)  can0  012   [8]  E8 03 10 00 00 00 00 00
 (1648942841.992576)  can0  1E5   [8]  1C FF C0 30 00 00 02 47
 (1648942841.994364)  can0  014   [5]  00 00 00 10 27
 (1648942842.001377)  can0  012   [8]  E8 03 10 00 00 00 00 00
 (1648942842.002596)  can0  1E5   [8]  1C FF BE 50 00 00 02 65
 (1648942842.004010)  can0  010   [4]  45 A2 13 00
 (1648942842.004188)  can0  005   [8]  01 00 00 00 00 00 00 00
 (1648942842.004391)  can0  014   [5]  00 00 00 13 27
 (1648942842.011409)  can0  012   [8]  E8 03 10 00 00 00 00 00
 (1648942842.012540)  can0  1E5   [8]  1C FF BE 70 00 00 02 85
 (1648942842.014290)  can0  014   [5]  00 00 00 10 27
 (1648942842.021421)  can0  012   [8]  E8 03 10 00 00 00 00 00
 (1648942842.022592)  can0  1E5   [8]  1C FF BE 10 00 00 02 25
 (1648942842.024284)  can0  014   [5]  00 00 00 0D 27
 (1648942842.031366)  can0  012   [8]  E8 03 10 00 00 00 00 00
 (1648942842.032543)  can0  1E5   [8]  1C FF BE 30 00 00 02 45
 (1648942842.034324)  can0  014   [5]  00 00 00 10 27
 (1648942842.041414)  can0  012   [8]  E8 03 10 00 00 00 00 00
 (1648942842.042582)  can0  1E5   [8]  1C FF BE 50 00 00 02 65
 (1648942842.044335)  can0  014   [5]  00 00 00 10 27
 (1648942842.051430)  can0  012   [8]  E8 03 10 00 00 00 00 00
 (1648942842.052549)  can0  1E5   [8]  1C FF BE 70 00 00 02 85
 (1648942842.054296)  can0  014   [5]  00 00 00 10 27
 (1648942842.061438)  can0  012   [8]  E8 03 10 00 00 00 00 00
 (1648942842.062581)  can0  1E5   [8]  1C FF BE 10 00 00 02 25
 (1648942842.064297)  can0  014   [5]  00 00 00 10 27
 (1648942842.071428)  can0  012   [8]  E8 03 10 00 00 00 00 00
 (1648942842.072548)  can0  1E5   [8]  1C FF BE 30 00 00 02 45
 (1648942842.074342)  can0  014   [5]  00 00 00 10 27
 (1648942842.081375)  can0  012   [8]  E8 03 10 00 00 00 00 00
 (1648942842.082560)  can0  1E5   [8]  1C FF BE 50 00 00 02 65
 (1648942842.084355)  can0  014   [5]  00 00 00 10 27
 (1648942842.091431)  can0  012   [8]  E8 03 10 00 00 00 00 00
 (1648942842.092588)  can0  1E5   [8]  1C FF BE 70 00 00 02 85
 (1648942842.094341)  can0  014   [5]  00 00 00 10 27
 (1648942842.101435)  can0  012   [8]  E8 03 10 00 00 00 00 00
 (1648942842.102607)  can0  1E5   [8]  1C FF BE 10 00 00 02 25
 (1648942842.103988)  can0  010   [4]  45 A2 13 00
 (1648942842.104215)  can0  005   [8]  01 00 00 00 00 00 00 00
 (1648942842.104390)  can0  014   [5]  00 00 00 13 27
 (1648942842.111441)  can0  012   [8]  E8 03 10 00 00 00 00 00
 (1648942842.112545)  can0  1E5   [8]  1C FF BE 30 00 00 02 45
 (1648942842.114324)  can0  014   [5]  00 00 00 10 27
 (1648942842.121431)  can0  012   [8]  E8 03 10 00 00 00 00 00
 (1648942842.122599)  can0  1E5   [8]  1C FF BE 50 00 00 02 65
 (1648942842.124375)  can0  014   [5]  00 00 00 0D 27
 (1648942842.131366)  can0  012   [8]  E8 03 10 00 00 00 00 00
 (1648942842.132606)  can0  1E5   [8]  1C FF BE 70 00 00 02 85
 (1648942842.134297)  can0  014   [5]  00 00 00 10 27
