 (1648944181.786749)  can0  012   [8]  E8 03 10 00 00 00 00 00
 (1648944181.789506)  can0  1E5   [8]  1C 01 41 30 00 00 00 CA
 (1648944181.789625)  can0  014   [5]  00 00 00 10 27
 (1648944181.796784)  can0  012   [8]  E8 03 10 00 00 00 00 00
 (1648944181.799442)  can0  1E5   [8]  1C 01 41 50 00 00 00 EA
 (1648944181.799615)  can0  014   [5]  00 00 00 10 27
 (1648944181.806760)  can0  012   [8]  E8 03 10 00 00 00 00 00
 (1648944181.809457)  can0  1E5   [8]  1C 01 41 70 00 00 01 0A
 (1648944181.809646)  can0  014   [5]  00 00 00 10 27
 (1648944181.816779)  can0  012   [8]  E8 03 10 00 00 00 00 00
 (1648944181.819498)  can0  1E5   [8]  1C 01 41 10 00 00 00 AA
 (1648944181.819629)  can0  014   [5]  00 00 00 10 27
 (1648944181.826794)  can0  012   [8]  E8 03 10 00 00 00 00 00
 (1648944181.829529)  can0  1E5   [8]  1C 01 41 30 00 00 00 CA
 (1648944181.829595)  can0  014   [5]  00 00 00 10 27
 (1648944181.836772)  can0  012   [8]  E8 03 10 00 00 00 00 00
 (1648944181.839512)  can0  1E5   [8]  1C 01 41 50 00 00 00 EA
 (1648944181.839650)  can0  014   [5]  00 00 00 10 27
 (1648944181.846794)  can0  012   [8]  E8 03 10 00 00 00 00 00
 (1648944181.849430)  can0  1E5   [8]  1C 01 41 70 00 00 01 0A
 (1648944181.849623)  can0  014   [5]  00 00 00 10 27
 (1648944181.856705)  can0  012   [8]  E8 03 10 00 00 00 00 00
 (1648944181.859195)  can0  010   [4]  26 73 00 00
 (1648944181.859443)  can0  005   [8]  00 00 00 00 00 00 00 00
 (1648944181.859615)  can0  014   [5]  00 00 00 14 27
 (1648944181.859737)  can0  0E2   [2]  18 01
 (1648944181.859902)  can0  0E4   [2]  18 01
 (1648944181.860120)  can0  1E5   [8]  1C 01 41 10 00 00 00 AA
 (1648944181.867054)  can0  012   [8]  E8 03 10 00 00 00 00 00
 (1648944181.869496)  can0  1E5   [8]  1C 01 41 30 00 00 00 CA
 (1648944181.869669)  can0  014   [5]  00 00 00 13 27
 (1648944181.876774)  can0  012   [8]  E8 03 10 00 00 00 00 00
 (1648944181.879490)  can0  1E5   [8]  1C 01 41 50 00 00 00 EA
 (1648944181.879682)  can0  014   [5]  00 00 00 09 27
 (1648944181.886776)  can0  012   [8]  E8 03 10 00 00 00 00 00
 (1648944181.889434)  can0  1E5   [8]  1C 01 41 70 00 00 01 0A
 (1648944181.889608)  can0  014   [5]  00 00 00 10 27
 (1648944181.896713)  can0  012   [8]  E8 03 10 00 00 00 00 00
 (1648944181.899435)  can0  1E5   [8]  1C 01 41 10 00 00 00 AA
 (1648944181.899633)  can0  014   [5]  00 00 00 10 27
 (1648944181.906785)  can0  012   [8]  E8 03 10 00 00 00 00 00
 (1648944181.909490)  can0  1E5   [8]  1C 01 41 30 00 00 00 CA
 (1648944181.909635)  can0  014   [5]  00 00 00 10 27
 (1648944181.917030)  can0  012   [8]  E8 03 10 00 00 00 00 00
 (1648944181.919523)  can0  1E5   [8]  1C 01 41 50 00 00 00 EA
 (1648944181.919641)  can0  014   [5]  00 00 00 10 27
 (1648944181.926774)  can0  012   [8]  E8 03 10 00 00 00 00 00
 (1648944181.929523)  can0  1E5   [8]  1C 01 3F 70 00 00 01 08
 (1648944181.929615)  can0  014   [5]  00 00 00 10 27
 (1648944181.936754)  can0  012   [8]  E8 03 10 00 00 00 00 00
 (1648944181.939497)  can0  1E5   [8]  1C 01 41 10 00 00 00 AA
 (1648944181.939610)  can0  014   [5]  00 00 00 10 27
 (1648944181.946755)  can0  012   [8]  E8 03 10 00 00 00 00 00
 (1648944181.949521)  can0  1E5   [8]  1C 01 41 30 00 00 00 CA
 (1648944181.949612)  can0  014   [5]  00 00 00 10 27
 (1648944181.956780)  can0  012   [8]  E8 03 10 00 00 00 00 00
 (1648944181.959183)  can0  010   [4]  26 73 00 00
 (1648944181.959456)  can0  005   [8]  00 00 00 00 00 00 00 00
 (1648944181.959610)  can0  014   [5]  00 00 00 14 27
 (1648944181.959862)  can0  1E5   [8]  1C 01 41 50 00 00 00 EA
 (1648944181.966778)  can0  012   [8]  E8 03 10 00 00 00 00 00
 (1648944181.969458)  can0  1E5   [8]  1C 01 41 70 00 00 01 0A
 (1648944181.969616)  can0  014   [5]  00 00 00 10 27
 (1648944181.976784)  can0  012   [8]  E8 03 10 00 00 00 00 00
 (1648944181.979498)  can0  1E5   [8]  1C 01 3F 10 00 00 00 A8
 (1648944181.979644)  can0  014   [5]  00 00 00 0C 27
 (1648944181.986719)  can0  012   [8]  E8 03 10 00 00 00 00 00
 (1648944181.989445)  can0  1E5   [8]  1C 01 3F 30 00 00 00 C8
 (1648944181.989612)  can0  014   [5]  00 00 00 10 27
 (1648944181.996748)  can0  012   [8]  E8 03 10 00 00 00 00 00
 (1648944181.999443)  can0  1E5   [8]  1C 01 3F 50 00 00 00 E8
 (1648944181.999609)  can0  014   [5]  00 00 00 10 27
 (1648944182.006717)  can0  012   [8]  E8 03 10 00 00 00 00 00
 (1648944182.009451)  can0  1E5   [8]  1C 01 41 70 00 00 01 0A
 (1648944182.009610)  can0  014   [5]  00 00 00 10 27
 (1648944182.016716)  can0  012   [8]  E8 03 10 00 00 00 00 00
 (1648944182.019438)  can0  1E5   [8]  1C 01 41 10 00 00 00 AA
 (1648944182.019608)  can0  014   [5]  00 00 00 10 27
 (1648944182.026732)  can0  012   [8]  E8 03 10 00 00 00 00 00
 (1648944182.029446)  can0  1E5   [8]  1C 01 41 30 00 00 00 CA
 (1648944182.029608)  can0  014   [5]  00 00 00 10 27
 (1648944182.036730)  can0  012   [8]  E8 03 10 00 00 00 00 00
 (1648944182.039450)  can0  1E5   [8]  1C 01 3F 50 00 00 00 E8
 (1648944182.039615)  can0  014   [5]  00 00 00 10 27
 (1648944182.046736)  can0  012   [8]  E8 03 10 00 00 00 00 00
 (1648944182.049455)  can0  1E5   [8]  1C 01 3F 70 00 00 01 08
 (1648944182.049618)  can0  014   [5]  00 00 00 10 27
 (1648944182.056822)  can0  012   [8]  E8 03 10 00 00 00 00 00
 (1648944182.059146)  can0  010   [4]  26 73 00 00
 (1648944182.059447)  can0  005   [8]  00 00 00 00 00 00 00 00
 (1648944182.059620)  can0  014   [5]  00 00 00 14 27
 (1648944182.059864)  can0  1E5   [8]  1C 01 3F 10 00 00 00 A8
 (1648944182.066800)  can0  012   [8]  E8 03 10 00 00 00 00 00
 (1648944182.069505)  can0  1E5   [8]  1C 01 41 30 00 00 00 CA
 (1648944182.069626)  can0  014   [5]  00 00 00 10 27
 (1648944182.076784)  can0  012   [8]  E8 03 10 00 00 00 00 00
 (1648944182.079488)  can0  1E5   [8]  1C 01 41 50 00 00 00 EA
 (1648944182.079617)  can0  014   [5]  00 00 00 0C 27
 (1648944182.086749)  can0  012   [8]  E8 03 10 00 00 00 00 00
 (1648944182.089451)  can0  1E5   [8]  1C 01 41 70 00 00 01 0A
 (1648944182.089630)  can0  014   [5]  00 00 00 10 27
 (1648944182.096792)  can0  012   [8]  E8 03 10 00 00 00 00 00
 (1648944182.099514)  can0  1E5   [8]  1C 01 41 10 00 00 00 AA
 (1648944182.099630)  can0  014   [5]  00 00 00 10 27
 (1648944182.106829)  can0  012   [8]  E8 03 10 00 00 00 00 00
 (1648944182.109465)  can0  1E5   [8]  1C 01 41 30 00 00 00 CA
 (1648944182.109616)  can0  014   [5]  00 00 00 10 27
 (1648944182.116779)  can0  012   [8]  E8 03 10 00 00 00 00 00
 (1648944182.119521)  can0  1E5   [8]  1C 01 3F 50 00 00 00 E8
 (1648944182.119678)  can0  014   [5]  00 00 00 10 27
 (1648944182.126789)  can0  012   [8]  E8 03 10 00 00 00 00 00
 (1648944182.129480)  can0  1E5   [8]  1C 01 41 70 00 00 01 0A
 (1648944182.129672)  can0  014   [5]  00 00 00 10 27
 (1648944182.136733)  can0  012   [8]  E8 03 10 00 00 00 00 00
 (1648944182.139466)  can0  1E5   [8]  1C 01 41 10 00 00 00 AA
 (1648944182.139623)  can0  014   [5]  00 00 00 10 27
 (1648944182.146768)  can0  012   [8]  E8 03 10 00 00 00 00 00
 (1648944182.149513)  can0  1E5   [8]  1C 01 41 30 00 00 00 CA
 (1648944182.149628)  can0  014   [5]  00 00 00 10 27
 (1648944182.156808)  can0  012   [8]  E8 03 10 00 00 00 00 00
 (1648944182.159209)  can0  010   [4]  26 73 00 00
 (1648944182.159450)  can0  005   [8]  00 00 00 00 00 00 00 00
 (1648944182.159623)  can0  014   [5]  00 00 00 14 27
 (1648944182.159890)  can0  1E5   [8]  1C 01 41 50 00 00 00 EA
 (1648944182.166807)  can0  012   [8]  E8 03 10 00 00 00 00 00
 (1648944182.169522)  can0  1E5   [8]  1C 01 41 70 00 00 01 0A
 (1648944182.169626)  can0  014   [5]  00 00 00 10 27
 (1648944182.176790)  can0  012   [8]  E8 03 10 00 00 00 00 00
 (1648944182.179518)  can0  1E5   [8]  1C 01 41 10 00 00 00 AA
 (1648944182.179674)  can0  014   [5]  00 00 00 0C 27
 (1648944182.186729)  can0  012   [8]  E8 03 10 00 00 00 00 00
 (1648944182.189442)  can0  1E5   [8]  1C 01 41 30 00 00 00 CA
 (1648944182.189633)  can0  014   [5]  00 00 00 10 27
 (1648944182.196811)  can0  012   [8]  E8 03 10 00 00 00 00 00
 (1648944182.199493)  can0  1E5   [8]  1C 01 41 50 00 00 00 EA
 (1648944182.199684)  can0  014   [5]  00 00 00 10 27
 (1648944182.206804)  can0  012   [8]  E8 03 10 00 00 00 00 00
 (1648944182.209496)  can0  1E5   [8]  1C 01 41 70 00 00 01 0A
 (1648944182.209644)  can0  014   [5]  00 00 00 10 27
 (1648944182.216742)  can0  012   [8]  E8 03 10 00 00 00 00 00
 (1648944182.219487)  can0  1E5   [8]  1C 01 41 10 00 00 00 AA
 (1648944182.219659)  can0  014   [5]  00 00 00 10 27
 (1648944182.226793)  can0  012   [8]  E8 03 10 00 00 00 00 00
 (1648944182.229518)  can0  1E5   [8]  1C 01 41 30 00 00 00 CA
 (1648944182.229670)  can0  014   [5]  00 00 00 10 27
 (1648944182.236739)  can0  012   [8]  E8 03 10 00 00 00 00 00
 (1648944182.239481)  can0  1E5   [8]  1C 01 41 50 00 00 00 EA
 (1648944182.239637)  can0  014   [5]  00 00 00 10 27
 (1648944182.246738)  can0  012   [8]  E8 03 10 00 00 00 00 00
 (1648944182.249466)  can0  1E5   [8]  1C 01 41 70 00 00 01 0A
 (1648944182.249631)  can0  014   [5]  00 00 00 10 27
 (1648944182.256746)  can0  012   [8]  E8 03 10 00 00 00 00 00
 (1648944182.259217)  can0  010   [4]  26 73 00 00
 (1648944182.259448)  can0  005   [8]  00 00 00 00 00 00 00 00
 (1648944182.259630)  can0  014   [5]  00 00 00 14 27
 (1648944182.259885)  can0  1E5   [8]  1C 01 3F 10 00 00 00 A8
 (1648944182.266828)  can0  012   [8]  E8 03 10 00 00 00 00 00
 (1648944182.269448)  can0  1E5   [8]  1C 01 41 30 00 00 00 CA
 (1648944182.269630)  can0  014   [5]  00 00 00 10 27
 (1648944182.276796)  can0  012   [8]  E8 03 10 00 00 00 00 00
 (1648944182.279514)  can0  1E5   [8]  1C 01 41 50 00 00 00 EA
 (1648944182.279638)  can0  014   [5]  00 00 00 0C 27
 (1648944182.286749)  can0  012   [8]  E8 03 10 00 00 00 00 00
 (1648944182.289446)  can0  1E5   [8]  1C 01 41 70 00 00 01 0A
 (1648944182.289636)  can0  014   [5]  00 00 00 10 27
 (1648944182.296778)  can0  012   [8]  E8 03 10 00 00 00 00 00
 (1648944182.299548)  can0  1E5   [8]  1C 01 3F 10 00 00 00 A8
 (1648944182.299642)  can0  014   [5]  00 00 00 10 27
 (1648944182.306822)  can0  012   [8]  E8 03 10 00 00 00 00 00
 (1648944182.309484)  can0  1E5   [8]  1C 01 41 30 00 00 00 CA
 (1648944182.309683)  can0  014   [5]  00 00 00 10 27
 (1648944182.316788)  can0  012   [8]  E8 03 10 00 00 00 00 00
 (1648944182.319438)  can0  1E5   [8]  1C 01 41 50 00 00 00 EA
 (1648944182.319636)  can0  014   [5]  00 00 00 10 27
 (1648944182.326821)  can0  012   [8]  E8 03 10 00 00 00 00 00
 (1648944182.329449)  can0  1E5   [8]  1C 01 41 70 00 00 01 0A
 (1648944182.329629)  can0  014   [5]  00 00 00 10 27
 (1648944182.336747)  can0  012   [8]  E8 03 10 00 00 00 00 00
 (1648944182.339453)  can0  1E5   [8]  1C 01 41 10 00 00 00 AA
 (1648944182.339637)  can0  014   [5]  00 00 00 10 27
 (1648944182.346764)  can0  012   [8]  E8 03 10 00 00 00 00 00
 (1648944182.349441)  can0  1E5   [8]  1C 01 41 30 00 00 00 CA
 (1648944182.349635)  can0  014   [5]  00 00 00 10 27
 (1648944182.356796)  can0  012   [8]  E8 03 10 00 00 00 00 00
 (1648944182.359179)  can0  010   [4]  26 73 00 00
 (1648944182.359476)  can0  005   [8]  00 00 00 00 00 00 00 00
 (1648944182.359638)  can0  014   [5]  00 00 00 14 27
 (1648944182.359863)  can0  1E5   [8]  1C 01 41 50 00 00 00 EA
 (1648944182.366790)  can0  012   [8]  E8 03 10 00 00 00 00 00
 (1648944182.369475)  can0  1E5   [8]  1C 01 41 70 00 00 01 0A
 (1648944182.369639)  can0  014   [5]  00 00 00 10 27
 (1648944182.376755)  can0  012   [8]  E8 03 10 00 00 00 00 00
 (1648944182.379454)  can0  1E5   [8]  1C 01 3F 10 00 00 00 A8
 (1648944182.379658)  can0  014   [5]  00 00 00 0C 27
 (1648944182.386976)  can0  012   [8]  E8 03 10 00 00 00 00 00
 (1648944182.389553)  can0  1E5   [8]  1C 01 41 30 00 00 00 CA
 (1648944182.390840)  can0  014   [5]  00 00 00 10 27
 (1648944182.396762)  can0  012   [8]  E8 03 10 00 00 00 00 00
 (1648944182.399446)  can0  1E5   [8]  1C 01 41 50 00 00 00 EA
 (1648944182.399612)  can0  014   [5]  00 00 00 10 27
 (1648944182.406793)  can0  012   [8]  E8 03 10 00 00 00 00 00
 (1648944182.409471)  can0  1E5   [8]  1C 01 41 70 00 00 01 0A
 (1648944182.409710)  can0  014   [5]  00 00 00 10 27
 (1648944182.416758)  can0  012   [8]  E8 03 10 00 00 00 00 00
 (1648944182.419431)  can0  1E5   [8]  1C 01 41 10 00 00 00 AA
 (1648944182.419626)  can0  014   [5]  00 F0 FF 10 27
 (1648944182.426773)  can0  012   [8]  E8 03 10 00 00 00 00 00
 (1648944182.429450)  can0  1E5   [8]  1C 01 3F 30 00 00 00 C8
 (1648944182.429643)  can0  014   [5]  00 00 00 10 27
 (1648944182.436742)  can0  012   [8]  E8 03 10 00 00 00 00 00
 (1648944182.439433)  can0  1E5   [8]  1C 01 41 50 00 00 00 EA
 (1648944182.439633)  can0  014   [5]  00 00 00 10 27
 (1648944182.446779)  can0  012   [8]  E8 03 10 00 00 00 00 00
 (1648944182.449439)  can0  1E5   [8]  1C 01 41 70 00 00 01 0A
 (1648944182.449630)  can0  014   [5]  00 00 00 10 27
 (1648944182.456834)  can0  012   [8]  E8 03 10 00 00 00 00 00
 (1648944182.459188)  can0  010   [4]  26 73 00 00
 (1648944182.459438)  can0  005   [8]  00 00 00 00 00 00 00 00
 (1648944182.459630)  can0  014   [5]  00 00 00 14 27
 (1648944182.459879)  can0  1E5   [8]  1C 01 41 10 00 00 00 AA
 (1648944182.466820)  can0  012   [8]  E8 03 10 00 00 00 00 00
 (1648944182.469468)  can0  1E5   [8]  1C 01 3F 30 00 00 00 C8
 (1648944182.469604)  can0  014   [5]  00 00 00 10 27
 (1648944182.476807)  can0  012   [8]  E8 03 10 00 00 00 00 00
 (1648944182.479483)  can0  1E5   [8]  1C 01 3F 50 00 00 00 E8
 (1648944182.479676)  can0  014   [5]  00 00 00 0C 27
 (1648944182.486793)  can0  012   [8]  E8 03 10 00 00 00 00 00
 (1648944182.489533)  can0  1E5   [8]  1C 01 41 70 00 00 01 0A
 (1648944182.489606)  can0  014   [5]  00 00 00 10 27
 (1648944182.496786)  can0  012   [8]  E8 03 10 00 00 00 00 00
 (1648944182.499499)  can0  1E5   [8]  1C 01 41 10 00 00 00 AA
 (1648944182.499639)  can0  014   [5]  00 00 00 10 27
 (1648944182.506823)  can0  012   [8]  E8 03 10 00 00 00 00 00
 (1648944182.509488)  can0  1E5   [8]  1C 01 3F 30 00 00 00 C8
 (1648944182.509645)  can0  014   [5]  00 00 00 10 27
 (1648944182.516800)  can0  012   [8]  E8 03 10 00 00 00 00 00
 (1648944182.519534)  can0  1E5   [8]  1C 01 3F 50 00 00 00 E8
 (1648944182.519623)  can0  014   [5]  00 00 00 10 27
 (1648944182.526817)  can0  012   [8]  E8 03 10 00 00 00 00 00
 (1648944182.529504)  can0  1E5   [8]  1C 01 41 70 00 00 01 0A
 (1648944182.529650)  can0  014   [5]  00 00 00 10 27
 (1648944182.536752)  can0  012   [8]  E8 03 10 00 00 00 00 00
 (1648944182.539454)  can0  1E5   [8]  1C 01 3F 10 00 00 00 A8
 (1648944182.539625)  can0  014   [5]  00 00 00 10 27
 (1648944182.546799)  can0  012   [8]  E8 03 10 00 00 00 00 00
 (1648944182.549516)  can0  1E5   [8]  1C 01 3F 30 00 00 00 C8
 (1648944182.549699)  can0  014   [5]  00 00 00 10 27
 (1648944182.556893)  can0  012   [8]  E8 03 10 00 00 00 00 00
 (1648944182.559220)  can0  010   [4]  26 73 00 00
 (1648944182.559625)  can0  005   [8]  00 00 00 00 00 00 00 00
 (1648944182.559633)  can0  014   [5]  00 00 00 14 27
 (1648944182.559888)  can0  1E5   [8]  1C 01 3F 50 00 00 00 E8
 (1648944182.566791)  can0  012   [8]  E8 03 10 00 00 00 00 00
 (1648944182.569561)  can0  1E5   [8]  1C 01 3F 70 00 00 01 08
 (1648944182.569655)  can0  014   [5]  00 00 00 10 27
 (1648944182.576860)  can0  012   [8]  E8 03 10 00 00 00 00 00
 (1648944182.579543)  can0  1E5   [8]  1C 01 3F 10 00 00 00 A8
 (1648944182.579687)  can0  014   [5]  00 00 00 0C 27
 (1648944182.586755)  can0  012   [8]  E8 03 10 00 00 00 00 00
 (1648944182.589457)  can0  1E5   [8]  1C 01 3F 30 00 00 00 C8
 (1648944182.589682)  can0  014   [5]  00 00 00 10 27
 (1648944182.596764)  can0  012   [8]  E8 03 10 00 00 00 00 00
 (1648944182.599453)  can0  1E5   [8]  1C 01 41 50 00 00 00 EA
 (1648944182.599627)  can0  014   [5]  00 00 00 10 27
 (1648944182.606781)  can0  012   [8]  E8 03 10 00 00 00 00 00
 (1648944182.609553)  can0  1E5   [8]  1C 01 41 70 00 00 01 0A
 (1648944182.609644)  can0  014   [5]  00 00 00 10 27
 (1648944182.616806)  can0  012   [8]  E8 03 10 00 00 00 00 00
 (1648944182.619491)  can0  1E5   [8]  1C 01 3F 10 00 00 00 A8
 (1648944182.619628)  can0  014   [5]  00 00 00 10 27
 (1648944182.626821)  can0  012   [8]  E8 03 10 00 00 00 00 00
 (1648944182.629515)  can0  1E5   [8]  1C 01 3F 30 00 00 00 C8
 (1648944182.629626)  can0  014   [5]  00 00 00 10 27
 (1648944182.636759)  can0  012   [8]  E8 03 10 00 00 00 00 00
 (1648944182.639482)  can0  1E5   [8]  1C 01 3F 50 00 00 00 E8
 (1648944182.639634)  can0  014   [5]  00 00 00 10 27
 (1648944182.646814)  can0  012   [8]  E8 03 10 00 00 00 00 00
 (1648944182.649497)  can0  1E5   [8]  1C 01 3F 70 00 00 01 08
 (1648944182.649691)  can0  014   [5]  00 00 00 10 27
 (1648944182.656766)  can0  012   [8]  E8 03 10 00 00 00 00 00
 (1648944182.659190)  can0  010   [4]  26 73 00 00
 (1648944182.659457)  can0  005   [8]  00 00 00 00 00 00 00 00
 (1648944182.659637)  can0  014   [5]  00 00 00 14 27
 (1648944182.659886)  can0  1E5   [8]  1C 01 3F 10 00 00 00 A8
 (1648944182.666809)  can0  012   [8]  E8 03 10 00 00 00 00 00
 (1648944182.666904)  can0  0E3   [2]  40 01
 (1648944182.669537)  can0  1E5   [8]  1C 01 3F 30 00 00 00 C8
 (1648944182.669666)  can0  014   [5]  00 00 00 13 27
 (1648944182.676829)  can0  012   [8]  E8 03 10 00 00 00 00 00
 (1648944182.679494)  can0  1E5   [8]  1C 01 3F 50 00 00 00 E8
 (1648944182.679682)  can0  014   [5]  00 00 00 09 27
 (1648944182.686812)  can0  012   [8]  E8 03 10 00 00 00 00 00
 (1648944182.689482)  can0  1E5   [8]  1C 01 3F 70 00 00 01 08
 (1648944182.689637)  can0  014   [5]  00 00 00 10 27
 (1648944182.696849)  can0  012   [8]  E8 03 10 00 00 00 00 00
 (1648944182.699500)  can0  1E5   [8]  1C 01 3F 10 00 00 00 A8
 (1648944182.699639)  can0  014   [5]  00 00 00 10 27
 (1648944182.706804)  can0  012   [8]  E8 03 10 00 00 00 00 00
 (1648944182.709469)  can0  1E5   [8]  1C 01 3F 30 00 00 00 C8
 (1648944182.709636)  can0  014   [5]  00 00 00 10 27
 (1648944182.716851)  can0  012   [8]  E8 03 10 00 00 00 00 00
 (1648944182.719495)  can0  1E5   [8]  1C 01 3F 50 00 00 00 E8
 (1648944182.719684)  can0  014   [5]  00 00 00 10 27
 (1648944182.726869)  can0  012   [8]  E8 03 10 00 00 00 00 00
 (1648944182.729478)  can0  1E5   [8]  1C 01 3F 70 00 00 01 08
 (1648944182.729632)  can0  014   [5]  00 00 00 10 27
 (1648944182.736806)  can0  012   [8]  E8 03 10 00 00 00 00 00
 (1648944182.739469)  can0  1E5   [8]  1C 01 3F 10 00 00 00 A8
 (1648944182.739652)  can0  014   [5]  00 00 00 10 27
 (1648944182.746820)  can0  012   [8]  E8 03 10 00 00 00 00 00
 (1648944182.749441)  can0  1E5   [8]  1C 01 3F 30 00 00 00 C8
 (1648944182.749652)  can0  014   [5]  00 00 00 10 27
 (1648944182.756778)  can0  012   [8]  E8 03 10 00 00 00 00 00
 (1648944182.759230)  can0  010   [4]  26 73 00 00
 (1648944182.759464)  can0  005   [8]  00 00 00 00 00 00 00 00
 (1648944182.759639)  can0  014   [5]  00 00 00 14 27
 (1648944182.759903)  can0  1E5   [8]  1C 01 3F 50 00 00 00 E8
 (1648944182.766863)  can0  012   [8]  E8 03 10 00 00 00 00 00
 (1648944182.769443)  can0  1E5   [8]  1C 01 3F 70 00 00 01 08
 (1648944182.769637)  can0  014   [5]  00 00 00 10 27
 (1648944182.776784)  can0  012   [8]  E8 03 10 00 00 00 00 00
 (1648944182.779496)  can0  1E5   [8]  1C 01 3F 10 00 00 00 A8
 (1648944182.779637)  can0  014   [5]  00 00 00 0C 27
 (1648944182.786771)  can0  012   [8]  E8 03 10 00 00 00 00 00
 (1648944182.789453)  can0  1E5   [8]  1C 01 41 30 00 00 00 CA
 (1648944182.789647)  can0  014   [5]  00 00 00 10 27
 (1648944182.796811)  can0  012   [8]  E8 03 10 00 00 00 00 00
 (1648944182.799496)  can0  1E5   [8]  1C 01 3F 50 00 00 00 E8
 (1648944182.799683)  can0  014   [5]  00 00 00 10 27
 (1648944182.806773)  can0  012   [8]  E8 03 10 00 00 00 00 00
 (1648944182.809536)  can0  1E5   [8]  1C 01 3F 70 00 00 01 08
 (1648944182.809645)  can0  014   [5]  00 00 00 10 27
 (1648944182.816820)  can0  012   [8]  E8 03 10 00 00 00 00 00
 (1648944182.819565)  can0  1E5   [8]  1C 01 3F 10 00 00 00 A8
 (1648944182.819634)  can0  014   [5]  00 00 00 10 27
 (1648944182.826834)  can0  012   [8]  E8 03 10 00 00 00 00 00
 (1648944182.829480)  can0  1E5   [8]  1C 01 3F 30 00 00 00 C8
 (1648944182.829651)  can0  014   [5]  00 00 00 10 27
 (1648944182.836770)  can0  012   [8]  E8 03 10 00 00 00 00 00
 (1648944182.839451)  can0  1E5   [8]  1C 01 3F 50 00 00 00 E8
 (1648944182.839645)  can0  014   [5]  00 00 00 10 27
 (1648944182.846824)  can0  012   [8]  E8 03 10 00 00 00 00 00
 (1648944182.849519)  can0  1E5   [8]  1C 01 3F 70 00 00 01 08
 (1648944182.849705)  can0  014   [5]  00 00 00 10 27
 (1648944182.856774)  can0  012   [8]  E8 03 10 00 00 00 00 00
 (1648944182.859205)  can0  010   [4]  26 73 00 00
 (1648944182.859486)  can0  1E5   [8]  1C 01 3F 10 00 00 00 A8
 (1648944182.859711)  can0  005   [8]  00 00 00 00 00 00 00 00
 (1648944182.859901)  can0  014   [5]  00 00 00 14 27
 (1648944182.860026)  can0  0E2   [2]  40 01
 (1648944182.860176)  can0  0E4   [2]  40 01
 (1648944182.866869)  can0  012   [8]  E8 03 10 00 00 00 00 00
 (1648944182.869540)  can0  1E5   [8]  1C 01 41 30 00 00 00 CA
 (1648944182.869647)  can0  014   [5]  00 00 00 13 27
 (1648944182.876838)  can0  012   [8]  E8 03 10 00 00 00 00 00
 (1648944182.879533)  can0  1E5   [8]  1C 01 41 50 00 00 00 EA
 (1648944182.879648)  can0  014   [5]  00 00 00 09 27
 (1648944182.886771)  can0  012   [8]  E8 03 10 00 00 00 00 00
 (1648944182.889460)  can0  1E5   [8]  1C 01 3F 70 00 00 01 08
 (1648944182.889651)  can0  014   [5]  00 00 00 10 27
 (1648944182.896817)  can0  012   [8]  E8 03 10 00 00 00 00 00
 (1648944182.899510)  can0  1E5   [8]  1C 01 3F 10 00 00 00 A8
 (1648944182.899702)  can0  014   [5]  00 00 00 10 27
 (1648944182.906784)  can0  012   [8]  E8 03 10 00 00 00 00 00
 (1648944182.909513)  can0  1E5   [8]  1C 01 3F 30 00 00 00 C8
 (1648944182.909643)  can0  014   [5]  00 00 00 10 27
 (1648944182.916860)  can0  012   [8]  E8 03 10 00 00 00 00 00
 (1648944182.919451)  can0  1E5   [8]  1C 01 41 50 00 00 00 EA
 (1648944182.919673)  can0  014   [5]  00 00 00 10 27
 (1648944182.926841)  can0  012   [8]  E8 03 10 00 00 00 00 00
 (1648944182.929493)  can0  1E5   [8]  1C 01 41 70 00 00 01 0A
 (1648944182.929648)  can0  014   [5]  00 00 00 10 27
 (1648944182.936824)  can0  012   [8]  E8 03 10 00 00 00 00 00
 (1648944182.939497)  can0  1E5   [8]  1C 01 3F 10 00 00 00 A8
 (1648944182.939631)  can0  014   [5]  00 00 00 10 27
 (1648944182.946842)  can0  012   [8]  E8 03 10 00 00 00 00 00
 (1648944182.949502)  can0  1E5   [8]  1C 01 41 30 00 00 00 CA
 (1648944182.949699)  can0  014   [5]  00 00 00 10 27
 (1648944182.956828)  can0  012   [8]  E8 03 10 00 00 00 00 00
 (1648944182.959247)  can0  010   [4]  26 73 00 00
 (1648944182.959499)  can0  1E5   [8]  1C 01 41 50 00 00 00 EA
 (1648944182.959710)  can0  005   [8]  00 00 00 00 00 00 00 00
 (1648944182.959896)  can0  014   [5]  00 00 00 14 27
 (1648944182.966878)  can0  012   [8]  E8 03 10 00 00 00 00 00
 (1648944182.969454)  can0  1E5   [8]  1C 01 3F 70 00 00 01 08
 (1648944182.969667)  can0  014   [5]  00 00 00 10 27
 (1648944182.976791)  can0  012   [8]  E8 03 10 00 00 00 00 00
 (1648944182.979513)  can0  1E5   [8]  1C 01 41 10 00 00 00 AA
 (1648944182.979723)  can0  014   [5]  00 00 00 0C 27
 (1648944182.986786)  can0  012   [8]  E8 03 10 00 00 00 00 00
 (1648944182.989460)  can0  1E5   [8]  1C 01 3F 30 00 00 00 C8
 (1648944182.989656)  can0  014   [5]  00 00 00 10 27
 (1648944182.996799)  can0  012   [8]  E8 03 10 00 00 00 00 00
 (1648944182.999468)  can0  1E5   [8]  1C 01 3F 50 00 00 00 E8
 (1648944182.999653)  can0  014   [5]  00 00 00 10 27
 (1648944183.006788)  can0  012   [8]  E8 03 10 00 00 00 00 00
 (1648944183.009525)  can0  1E5   [8]  1C 01 3F 70 00 00 01 08
 (1648944183.009652)  can0  014   [5]  00 00 00 10 27
 (1648944183.016835)  can0  012   [8]  E8 03 10 00 00 00 00 00
 (1648944183.019508)  can0  1E5   [8]  1C 01 3F 10 00 00 00 A8
 (1648944183.019662)  can0  014   [5]  00 00 00 10 27
 (1648944183.026842)  can0  012   [8]  E8 03 10 00 00 00 00 00
 (1648944183.029517)  can0  1E5   [8]  1C 01 3F 30 00 00 00 C8
 (1648944183.029718)  can0  014   [5]  00 00 00 10 27
 (1648944183.036806)  can0  012   [8]  E8 03 10 00 00 00 00 00
 (1648944183.039508)  can0  1E5   [8]  1C 01 41 50 00 00 00 EA
 (1648944183.039659)  can0  014   [5]  00 00 00 10 27
 (1648944183.046841)  can0  012   [8]  E8 03 10 00 00 00 00 00
 (1648944183.049517)  can0  1E5   [8]  1C 01 41 70 00 00 01 0A
 (1648944183.049638)  can0  014   [5]  00 00 00 10 27
 (1648944183.056762)  can0  012   [8]  E8 03 10 00 00 00 00 00
 (1648944183.059242)  can0  010   [4]  26 73 00 00
 (1648944183.059463)  can0  1E5   [8]  1C 01 41 10 00 00 00 AA
 (1648944183.059726)  can0  005   [8]  00 00 00 00 00 00 00 00
 (1648944183.059889)  can0  014   [5]  00 00 00 14 27
 (1648944183.066831)  can0  012   [8]  E8 03 10 00 00 00 00 00
 (1648944183.069494)  can0  1E5   [8]  1C 01 41 30 00 00 00 CA
 (1648944183.069659)  can0  014   [5]  00 00 00 10 27
 (1648944183.076854)  can0  012   [8]  E8 03 10 00 00 00 00 00
 (1648944183.079516)  can0  1E5   [8]  1C 01 3F 50 00 00 00 E8
 (1648944183.079634)  can0  014   [5]  00 00 00 0C 27
 (1648944183.086790)  can0  012   [8]  E8 03 10 00 00 00 00 00
 (1648944183.089472)  can0  1E5   [8]  1C 01 3F 70 00 00 01 08
 (1648944183.089665)  can0  014   [5]  00 00 00 10 27
 (1648944183.096830)  can0  012   [8]  E8 03 10 00 00 00 00 00
 (1648944183.099526)  can0  1E5   [8]  1C 01 41 10 00 00 00 AA
 (1648944183.099635)  can0  014   [5]  00 00 00 10 27
 (1648944183.106799)  can0  012   [8]  E8 03 10 00 00 00 00 00
 (1648944183.109502)  can0  1E5   [8]  1C 01 3F 30 00 00 00 C8
 (1648944183.109674)  can0  014   [5]  00 00 00 10 27
 (1648944183.116814)  can0  012   [8]  E8 03 10 00 00 00 00 00
 (1648944183.119484)  can0  1E5   [8]  1C 01 41 50 00 00 00 EA
 (1648944183.119640)  can0  014   [5]  00 00 00 10 27
 (1648944183.126856)  can0  012   [8]  E8 03 10 00 00 00 00 00
 (1648944183.129505)  can0  1E5   [8]  1C 01 41 70 00 00 01 0A
 (1648944183.129701)  can0  014   [5]  00 00 00 10 27
 (1648944183.136800)  can0  012   [8]  E8 03 10 00 00 00 00 00
 (1648944183.139466)  can0  1E5   [8]  1C 01 3F 10 00 00 00 A8
 (1648944183.139636)  can0  014   [5]  00 00 00 10 27
 (1648944183.146825)  can0  012   [8]  E8 03 10 00 00 00 00 00
 (1648944183.149503)  can0  1E5   [8]  1C 01 41 30 00 00 00 CA
 (1648944183.149636)  can0  014   [5]  00 00 00 10 27
 (1648944183.156768)  can0  012   [8]  E8 03 10 00 00 00 00 00
 (1648944183.159281)  can0  010   [4]  26 73 00 00
 (1648944183.159480)  can0  1E5   [8]  1C 01 41 50 00 00 00 EA
 (1648944183.159724)  can0  005   [8]  00 00 00 00 00 00 00 00
 (1648944183.159900)  can0  014   [5]  00 00 00 14 27
 (1648944183.166842)  can0  012   [8]  E8 03 10 00 00 00 00 00
 (1648944183.169507)  can0  1E5   [8]  1C 01 41 70 00 00 01 0A
 (1648944183.169643)  can0  014   [5]  00 00 00 10 27
 (1648944183.176803)  can0  012   [8]  E8 03 10 00 00 00 00 00
 (1648944183.179505)  can0  1E5   [8]  1C 01 41 10 00 00 00 AA
 (1648944183.179642)  can0  014   [5]  00 00 00 0C 27
 (1648944183.186794)  can0  012   [8]  E8 03 10 00 00 00 00 00
 (1648944183.189487)  can0  1E5   [8]  1C 01 41 30 00 00 00 CA
 (1648944183.189642)  can0  014   [5]  00 00 00 10 27
 (1648944183.196828)  can0  012   [8]  E8 03 10 00 00 00 00 00
 (1648944183.199475)  can0  1E5   [8]  1C 01 41 50 00 00 00 EA
 (1648944183.199643)  can0  014   [5]  00 00 00 10 27
 (1648944183.206833)  can0  012   [8]  E8 03 10 00 00 00 00 00
 (1648944183.209532)  can0  1E5   [8]  1C 01 41 70 00 00 01 0A
 (1648944183.209670)  can0  014   [5]  00 00 00 10 27
 (1648944183.216861)  can0  012   [8]  E8 03 10 00 00 00 00 00
 (1648944183.219489)  can0  1E5   [8]  1C 01 41 10 00 00 00 AA
 (1648944183.219644)  can0  014   [5]  00 00 00 10 27
 (1648944183.226852)  can0  012   [8]  E8 03 10 00 00 00 00 00
 (1648944183.229528)  can0  1E5   [8]  1C 01 41 30 00 00 00 CA
 (1648944183.229650)  can0  014   [5]  00 00 00 10 27
 (1648944183.236803)  can0  012   [8]  E8 03 10 00 00 00 00 00
 (1648944183.239538)  can0  1E5   [8]  1C 01 41 50 00 00 00 EA
 (1648944183.239650)  can0  014   [5]  00 00 00 10 27
 (1648944183.246854)  can0  012   [8]  E8 03 10 00 00 00 00 00
 (1648944183.249498)  can0  1E5   [8]  1C 01 41 70 00 00 01 0A
 (1648944183.249696)  can0  014   [5]  00 00 00 10 27
 (1648944183.256779)  can0  012   [8]  E8 03 10 00 00 00 00 00
 (1648944183.259296)  can0  010   [4]  26 73 00 00
 (1648944183.259479)  can0  1E5   [8]  1C 01 42 10 01 00 00 AC
 (1648944183.259726)  can0  005   [8]  00 00 00 00 00 00 00 00
 (1648944183.259899)  can0  014   [5]  00 00 00 14 27
 (1648944183.266846)  can0  012   [8]  E8 03 10 00 00 00 00 00
 (1648944183.269536)  can0  1E5   [8]  1C 01 41 30 00 00 00 CA
 (1648944183.269642)  can0  014   [5]  00 00 00 10 27
 (1648944183.276863)  can0  012   [8]  E8 03 10 00 00 00 00 00
 (1648944183.279505)  can0  1E5   [8]  1C 01 41 50 00 00 00 EA
 (1648944183.279701)  can0  014   [5]  00 00 00 0C 27
 (1648944183.286831)  can0  012   [8]  E8 03 10 00 00 00 00 00
 (1648944183.289477)  can0  1E5   [8]  1C 01 41 70 00 00 01 0A
 (1648944183.289652)  can0  014   [5]  00 00 00 10 27
 (1648944183.296853)  can0  012   [8]  E8 03 10 00 00 00 00 00
 (1648944183.299494)  can0  1E5   [8]  1C 01 41 10 00 00 00 AA
 (1648944183.300036)  can0  014   [5]  00 00 00 10 27
 (1648944183.306787)  can0  012   [8]  E8 03 10 00 00 00 00 00
 (1648944183.309476)  can0  1E5   [8]  1C 01 41 30 00 00 00 CA
 (1648944183.309657)  can0  014   [5]  00 00 00 10 27
 (1648944183.316833)  can0  012   [8]  E8 03 10 00 00 00 00 00
 (1648944183.319503)  can0  1E5   [8]  1C 01 41 50 00 00 00 EA
 (1648944183.319656)  can0  014   [5]  00 00 00 10 27
 (1648944183.326831)  can0  012   [8]  E8 03 10 00 00 00 00 00
 (1648944183.329453)  can0  1E5   [8]  1C 01 41 70 00 00 01 0A
 (1648944183.329649)  can0  014   [5]  00 00 00 10 27
 (1648944183.336854)  can0  012   [8]  E8 03 10 00 00 00 00 00
 (1648944183.339483)  can0  1E5   [8]  1C 01 41 10 00 00 00 AA
 (1648944183.339656)  can0  014   [5]  00 00 00 10 27
 (1648944183.346807)  can0  012   [8]  E8 03 10 00 00 00 00 00
 (1648944183.349455)  can0  1E5   [8]  1C 01 41 30 00 00 00 CA
 (1648944183.349652)  can0  014   [5]  00 00 00 10 27
 (1648944183.356811)  can0  012   [8]  E8 03 10 00 00 00 00 00
 (1648944183.359283)  can0  010   [4]  26 73 00 00
 (1648944183.359450)  can0  1E5   [8]  1C 01 41 50 00 00 00 EA
 (1648944183.359727)  can0  005   [8]  00 00 00 00 00 00 00 00
 (1648944183.359918)  can0  014   [5]  00 00 00 14 27
 (1648944183.366791)  can0  012   [8]  E8 03 10 00 00 00 00 00
 (1648944183.369505)  can0  1E5   [8]  1C 01 41 70 00 00 01 0A
 (1648944183.369660)  can0  014   [5]  00 00 00 10 27
 (1648944183.376861)  can0  012   [8]  E8 03 10 00 00 00 00 00
 (1648944183.379509)  can0  1E5   [8]  1C 01 41 10 00 00 00 AA
 (1648944183.379661)  can0  014   [5]  00 00 00 0C 27
 (1648944183.386787)  can0  012   [8]  E8 03 10 00 00 00 00 00
 (1648944183.389476)  can0  1E5   [8]  1C 01 41 30 00 00 00 CA
 (1648944183.389656)  can0  014   [5]  00 00 00 10 27
 (1648944183.396861)  can0  012   [8]  E8 03 10 00 00 00 00 00
 (1648944183.399539)  can0  1E5   [8]  1C 01 41 50 00 00 00 EA
 (1648944183.399703)  can0  014   [5]  00 00 00 10 27
 (1648944183.406850)  can0  012   [8]  E8 03 10 00 00 00 00 00
 (1648944183.409483)  can0  1E5   [8]  1C 01 41 70 00 00 01 0A
 (1648944183.409656)  can0  014   [5]  00 00 00 10 27
 (1648944183.416871)  can0  012   [8]  E8 03 10 00 00 00 00 00
 (1648944183.419501)  can0  1E5   [8]  1C 01 41 10 00 00 00 AA
 (1648944183.419712)  can0  014   [5]  00 00 00 10 27
 (1648944183.426873)  can0  012   [8]  E8 03 10 00 00 00 00 00
 (1648944183.429482)  can0  1E5   [8]  1C 01 41 30 00 00 00 CA
 (1648944183.429701)  can0  014   [5]  00 00 00 10 27
 (1648944183.436839)  can0  012   [8]  E8 03 10 00 00 00 00 00
 (1648944183.439494)  can0  1E5   [8]  1C 01 41 50 00 00 00 EA
 (1648944183.439660)  can0  014   [5]  FF 0F 00 10 27
 (1648944183.446879)  can0  012   [8]  E8 03 10 00 00 00 00 00
 (1648944183.449461)  can0  1E5   [8]  1C 01 41 70 00 00 01 0A
 (1648944183.449670)  can0  014   [5]  00 00 00 10 27
 (1648944183.456839)  can0  012   [8]  E8 03 10 00 00 00 00 00
 (1648944183.459267)  can0  010   [4]  26 73 00 00
 (1648944183.459500)  can0  1E5   [8]  1C 01 41 10 00 00 00 AA
 (1648944183.459721)  can0  005   [8]  00 00 00 00 00 00 00 00
 (1648944183.459912)  can0  014   [5]  00 00 00 14 27
 (1648944183.466833)  can0  012   [8]  E8 03 10 00 00 00 00 00
 (1648944183.469462)  can0  1E5   [8]  1C 01 41 30 00 00 00 CA
 (1648944183.469656)  can0  014   [5]  00 00 00 10 27
 (1648944183.476789)  can0  012   [8]  E8 03 10 00 00 00 00 00
 (1648944183.479503)  can0  1E5   [8]  1C 01 42 50 00 00 00 EB
 (1648944183.479718)  can0  014   [5]  00 00 00 0C 27
 (1648944183.486806)  can0  012   [8]  E8 03 10 00 00 00 00 00
 (1648944183.489469)  can0  1E5   [8]  1C 01 42 70 00 00 01 0B
 (1648944183.489671)  can0  014   [5]  00 00 00 10 27
 (1648944183.496829)  can0  012   [8]  E8 03 10 00 00 00 00 00
 (1648944183.499508)  can0  1E5   [8]  1C 01 42 10 00 00 00 AB
 (1648944183.499736)  can0  014   [5]  00 00 00 10 27
 (1648944183.506821)  can0  012   [8]  E8 03 10 00 00 00 00 00
 (1648944183.509469)  can0  1E5   [8]  1C 01 42 30 00 00 00 CB
 (1648944183.509659)  can0  014   [5]  00 00 00 10 27
 (1648944183.516843)  can0  012   [8]  E8 03 10 00 00 00 00 00
 (1648944183.519504)  can0  1E5   [8]  1C 01 41 50 00 00 00 EA
 (1648944183.519665)  can0  014   [5]  00 00 00 10 27
 (1648944183.526872)  can0  012   [8]  E8 03 10 00 00 00 00 00
 (1648944183.529501)  can0  1E5   [8]  1C 01 42 70 00 00 01 0B
 (1648944183.529667)  can0  014   [5]  00 00 00 10 27
 (1648944183.536853)  can0  012   [8]  E8 03 10 00 00 00 00 00
 (1648944183.539469)  can0  1E5   [8]  1C 01 42 10 00 00 00 AB
 (1648944183.539669)  can0  014   [5]  00 00 00 10 27
 (1648944183.546888)  can0  012   [8]  E8 03 10 00 00 00 00 00
 (1648944183.549470)  can0  1E5   [8]  1C 01 42 30 00 00 00 CB
 (1648944183.549661)  can0  014   [5]  00 00 00 10 27
 (1648944183.556819)  can0  012   [8]  E8 03 10 00 00 00 00 00
 (1648944183.559246)  can0  010   [4]  26 73 00 00
 (1648944183.559497)  can0  1E5   [8]  1C 01 41 50 00 00 00 EA
 (1648944183.559788)  can0  005   [8]  00 00 00 00 00 00 00 00
 (1648944183.559891)  can0  014   [5]  00 00 00 14 27
 (1648944183.566906)  can0  012   [8]  E8 03 10 00 00 00 00 00
 (1648944183.569543)  can0  1E5   [8]  1C 01 41 70 00 00 01 0A
 (1648944183.569684)  can0  014   [5]  00 00 00 10 27
 (1648944183.576849)  can0  012   [8]  E8 03 10 00 00 00 00 00
 (1648944183.579490)  can0  1E5   [8]  1C 01 41 10 00 00 00 AA
 (1648944183.579683)  can0  014   [5]  00 00 00 0C 27
 (1648944183.586839)  can0  012   [8]  E8 03 10 00 00 00 00 00
 (1648944183.589564)  can0  1E5   [8]  1C 01 41 30 00 00 00 CA
 (1648944183.589673)  can0  014   [5]  00 00 00 10 27
 (1648944183.596884)  can0  012   [8]  E8 03 10 00 00 00 00 00
 (1648944183.599492)  can0  1E5   [8]  1C 01 3F 5F FF 00 01 F6
 (1648944183.599744)  can0  014   [5]  00 00 00 10 27
 (1648944183.606860)  can0  012   [8]  E8 03 10 00 00 00 00 00
 (1648944183.609507)  can0  1E5   [8]  1C 01 3F 7F FF 00 02 16
 (1648944183.609644)  can0  014   [5]  00 00 00 10 27
 (1648944183.616798)  can0  012   [8]  E8 03 10 00 00 00 00 00
 (1648944183.619493)  can0  1E5   [8]  1C 01 3F 1F FF 00 01 B6
 (1648944183.619691)  can0  014   [5]  00 00 00 10 27
 (1648944183.626806)  can0  012   [8]  E8 03 10 00 00 00 00 00
 (1648944183.629493)  can0  1E5   [8]  1C 01 3F 3F FF 00 01 D6
 (1648944183.629679)  can0  014   [5]  00 00 00 10 27
 (1648944183.636834)  can0  012   [8]  E8 03 10 00 00 00 00 00
 (1648944183.639478)  can0  1E5   [8]  1C 01 3F 5F FF 00 01 F6
 (1648944183.639721)  can0  014   [5]  00 00 00 10 27
 (1648944183.646856)  can0  012   [8]  E8 03 10 00 00 00 00 00
 (1648944183.649492)  can0  1E5   [8]  1C 01 41 70 00 00 01 0A
 (1648944183.649664)  can0  014   [5]  00 00 00 10 27
 (1648944183.656825)  can0  012   [8]  E8 03 10 00 00 00 00 00
 (1648944183.659313)  can0  010   [4]  26 73 00 00
 (1648944183.659472)  can0  1E5   [8]  1C 01 41 10 00 00 00 AA
 (1648944183.659740)  can0  005   [8]  00 00 00 00 00 00 00 00
 (1648944183.659899)  can0  014   [5]  00 00 00 14 27
 (1648944183.666864)  can0  012   [8]  E8 03 10 00 00 00 00 00
 (1648944183.666950)  can0  0E3   [2]  68 01
 (1648944183.669481)  can0  1E5   [8]  1C 01 41 30 00 00 00 CA
 (1648944183.669650)  can0  014   [5]  00 00 00 13 27
 (1648944183.676862)  can0  012   [8]  E8 03 10 00 00 00 00 00
 (1648944183.679503)  can0  1E5   [8]  1C 01 41 50 00 00 00 EA
 (1648944183.679705)  can0  014   [5]  00 00 00 09 27
 (1648944183.686807)  can0  012   [8]  E8 03 10 00 00 00 00 00
 (1648944183.689483)  can0  1E5   [8]  1C 01 41 70 00 00 01 0A
 (1648944183.689655)  can0  014   [5]  00 00 00 10 27
 (1648944183.696868)  can0  012   [8]  E8 03 10 00 00 00 00 00
 (1648944183.699485)  can0  1E5   [8]  1C 01 41 10 00 00 00 AA
 (1648944183.699714)  can0  014   [5]  00 00 00 10 27
 (1648944183.706850)  can0  012   [8]  E8 03 10 00 00 00 00 00
 (1648944183.709477)  can0  1E5   [8]  1C 01 41 30 00 00 00 CA
 (1648944183.709676)  can0  014   [5]  00 00 00 10 27
 (1648944183.716805)  can0  012   [8]  E8 03 10 00 00 00 00 00
 (1648944183.719476)  can0  1E5   [8]  1C 01 41 50 00 00 00 EA
 (1648944183.719678)  can0  014   [5]  00 00 00 10 27
 (1648944183.726835)  can0  012   [8]  E8 03 10 00 00 00 00 00
 (1648944183.729488)  can0  1E5   [8]  1C 01 41 70 00 00 01 0A
 (1648944183.729652)  can0  014   [5]  00 00 00 10 27
 (1648944183.736860)  can0  012   [8]  E8 03 10 00 00 00 00 00
 (1648944183.739484)  can0  1E5   [8]  1C 01 41 10 00 00 00 AA
 (1648944183.739684)  can0  014   [5]  00 00 00 10 27
 (1648944183.746893)  can0  012   [8]  E8 03 10 00 00 00 00 00
 (1648944183.749531)  can0  1E5   [8]  1C 01 41 30 00 00 00 CA
 (1648944183.749679)  can0  014   [5]  00 F0 FF 10 27
 (1648944183.756818)  can0  012   [8]  E8 03 10 00 00 00 00 00
 (1648944183.759290)  can0  010   [4]  26 73 00 00
 (1648944183.759478)  can0  1E5   [8]  1C 01 41 50 00 00 00 EA
 (1648944183.759735)  can0  005   [8]  00 00 00 00 00 00 00 00
 (1648944183.760007)  can0  014   [5]  00 00 00 14 27
 (1648944183.766920)  can0  012   [8]  E8 03 10 00 00 00 00 00
 (1648944183.769494)  can0  1E5   [8]  1C 01 41 70 00 00 01 0A
 (1648944183.769657)  can0  014   [5]  00 00 00 10 27
 (1648944183.776863)  can0  012   [8]  E8 03 10 00 00 00 00 00
 (1648944183.779485)  can0  1E5   [8]  1C 01 41 10 00 00 00 AA
 (1648944183.779663)  can0  014   [5]  00 00 00 0C 27
 (1648944183.786810)  can0  012   [8]  E8 03 10 00 00 00 00 00
 (1648944183.789485)  can0  1E5   [8]  1C 01 41 30 00 00 00 CA
 (1648944183.789683)  can0  014   [5]  00 00 00 10 27
 (1648944183.796864)  can0  012   [8]  E8 03 10 00 00 00 00 00
 (1648944183.799493)  can0  1E5   [8]  1C 01 41 50 00 00 00 EA
 (1648944183.799656)  can0  014   [5]  00 00 00 10 27
 (1648944183.806866)  can0  012   [8]  E8 03 10 00 00 00 00 00
 (1648944183.809519)  can0  1E5   [8]  1C 01 41 70 00 00 01 0A
 (1648944183.809683)  can0  014   [5]  00 00 00 10 27
 (1648944183.816904)  can0  012   [8]  E8 03 10 00 00 00 00 00
 (1648944183.819490)  can0  1E5   [8]  1C 01 3F 10 00 00 00 A8
 (1648944183.819690)  can0  014   [5]  00 00 00 10 27
 (1648944183.826866)  can0  012   [8]  E8 03 10 00 00 00 00 00
 (1648944183.829489)  can0  1E5   [8]  1C 01 41 30 00 00 00 CA
 (1648944183.829687)  can0  014   [5]  00 00 00 10 27
 (1648944183.836900)  can0  012   [8]  E8 03 10 00 00 00 00 00
 (1648944183.839527)  can0  1E5   [8]  1C 01 3F 50 00 00 00 E8
 (1648944183.839657)  can0  014   [5]  00 00 00 10 27
 (1648944183.846818)  can0  012   [8]  E8 03 10 00 00 00 00 00
 (1648944183.849501)  can0  1E5   [8]  1C 01 3F 70 00 00 01 08
 (1648944183.849668)  can0  014   [5]  00 00 00 10 27
 (1648944183.856815)  can0  012   [8]  E8 03 10 00 00 00 00 00
 (1648944183.859281)  can0  010   [4]  26 73 00 00
 (1648944183.859492)  can0  1E5   [8]  1C 01 3F 10 00 00 00 A8
 (1648944183.859738)  can0  005   [8]  00 00 00 00 00 00 00 00
 (1648944183.859938)  can0  014   [5]  00 00 00 14 27
 (1648944183.860063)  can0  0E2   [2]  68 01
 (1648944183.860189)  can0  0E4   [2]  68 01
 (1648944183.866917)  can0  012   [8]  E8 03 10 00 00 00 00 00
 (1648944183.869497)  can0  1E5   [8]  1C 01 3F 30 00 00 00 C8
 (1648944183.869664)  can0  014   [5]  00 00 00 13 27
 (1648944183.876921)  can0  012   [8]  E8 03 10 00 00 00 00 00
 (1648944183.879510)  can0  1E5   [8]  1C 01 3F 50 00 00 00 E8
 (1648944183.879670)  can0  014   [5]  00 00 00 09 27
 (1648944183.886846)  can0  012   [8]  E8 03 10 00 00 00 00 00
 (1648944183.889497)  can0  1E5   [8]  1C 01 41 70 00 00 01 0A
 (1648944183.889680)  can0  014   [5]  00 00 00 10 27
 (1648944183.896872)  can0  012   [8]  E8 03 10 00 00 00 00 00
 (1648944183.899519)  can0  1E5   [8]  1C 01 41 10 00 00 00 AA
 (1648944183.899733)  can0  014   [5]  00 00 00 10 27
 (1648944183.906835)  can0  012   [8]  E8 03 10 00 00 00 00 00
 (1648944183.909507)  can0  1E5   [8]  1C 01 41 30 00 00 00 CA
 (1648944183.909674)  can0  014   [5]  00 00 00 10 27
 (1648944183.916872)  can0  012   [8]  E8 03 10 00 00 00 00 00
 (1648944183.919494)  can0  1E5   [8]  1C 01 41 50 00 00 00 EA
 (1648944183.919666)  can0  014   [5]  00 00 00 10 27
 (1648944183.926914)  can0  012   [8]  E8 03 10 00 00 00 00 00
 (1648944183.929499)  can0  1E5   [8]  1C 01 41 70 00 00 01 0A
 (1648944183.929674)  can0  014   [5]  00 00 00 10 27
 (1648944183.936872)  can0  012   [8]  E8 03 10 00 00 00 00 00
 (1648944183.939495)  can0  1E5   [8]  1C 01 41 10 00 00 00 AA
 (1648944183.939687)  can0  014   [5]  00 00 00 10 27
 (1648944183.946872)  can0  012   [8]  E8 03 10 00 00 00 00 00
 (1648944183.949509)  can0  1E5   [8]  1C 01 42 30 01 00 00 CC
 (1648944183.949721)  can0  014   [5]  00 00 00 10 27
 (1648944183.956874)  can0  012   [8]  E8 03 10 00 00 00 00 00
 (1648944183.959300)  can0  010   [4]  26 73 00 00
 (1648944183.959537)  can0  1E5   [8]  1C 01 42 50 01 00 00 EC
 (1648944183.959746)  can0  005   [8]  00 00 00 00 00 00 00 00
 (1648944183.959944)  can0  014   [5]  00 00 00 14 27
 (1648944183.966820)  can0  012   [8]  E8 03 10 00 00 00 00 00
 (1648944183.969491)  can0  1E5   [8]  1C 01 42 70 01 00 01 0C
 (1648944183.969675)  can0  014   [5]  00 00 00 10 27
 (1648944183.976878)  can0  012   [8]  E8 03 10 00 00 00 00 00
 (1648944183.979503)  can0  1E5   [8]  1C 01 42 10 01 00 00 AC
 (1648944183.979675)  can0  014   [5]  00 00 00 0C 27
 (1648944183.986879)  can0  012   [8]  E8 03 10 00 00 00 00 00
 (1648944183.989486)  can0  1E5   [8]  1C 01 42 30 01 00 00 CC
 (1648944183.989680)  can0  014   [5]  00 00 00 10 27
 (1648944183.996877)  can0  012   [8]  E8 03 10 00 00 00 00 00
 (1648944183.999664)  can0  1E5   [8]  1C 01 42 50 01 00 00 EC
 (1648944183.999673)  can0  014   [5]  00 00 00 10 27
 (1648944184.006851)  can0  012   [8]  E8 03 10 00 00 00 00 00
 (1648944184.009506)  can0  1E5   [8]  1C 01 42 70 01 00 01 0C
 (1648944184.009679)  can0  014   [5]  00 00 00 10 27
 (1648944184.016869)  can0  012   [8]  E8 03 10 00 00 00 00 00
 (1648944184.019512)  can0  1E5   [8]  1C 01 42 10 01 00 00 AC
 (1648944184.019679)  can0  014   [5]  00 00 00 10 27
 (1648944184.026878)  can0  012   [8]  E8 03 10 00 00 00 00 00
 (1648944184.029505)  can0  1E5   [8]  1C 01 42 30 01 00 00 CC
 (1648944184.029679)  can0  014   [5]  00 00 00 10 27
 (1648944184.036875)  can0  012   [8]  E8 03 10 00 00 00 00 00
 (1648944184.039505)  can0  1E5   [8]  1C 01 41 50 00 00 00 EA
 (1648944184.039676)  can0  014   [5]  00 00 00 10 27
 (1648944184.046921)  can0  012   [8]  E8 03 10 00 00 00 00 00
 (1648944184.049483)  can0  1E5   [8]  1C 01 41 70 00 00 01 0A
 (1648944184.049674)  can0  014   [5]  00 00 00 10 27
 (1648944184.056832)  can0  012   [8]  E8 03 10 00 00 00 00 00
 (1648944184.059304)  can0  010   [4]  26 73 00 00
 (1648944184.059542)  can0  1E5   [8]  1C 01 41 10 00 00 00 AA
 (1648944184.059752)  can0  005   [8]  00 00 00 00 00 00 00 00
 (1648944184.059934)  can0  014   [5]  00 00 00 14 27
 (1648944184.066826)  can0  012   [8]  E8 03 10 00 00 00 00 00
 (1648944184.069498)  can0  1E5   [8]  1C 01 42 30 00 00 00 CB
 (1648944184.069676)  can0  014   [5]  00 00 00 10 27
 (1648944184.076882)  can0  012   [8]  E8 03 10 00 00 00 00 00
 (1648944184.079579)  can0  1E5   [8]  1C 01 42 50 00 00 00 EB
 (1648944184.079681)  can0  014   [5]  00 00 00 0C 27
 (1648944184.086845)  can0  012   [8]  E8 03 10 00 00 00 00 00
 (1648944184.089514)  can0  1E5   [8]  1C 01 41 70 00 00 01 0A
 (1648944184.089686)  can0  014   [5]  00 00 00 10 27
 (1648944184.096882)  can0  012   [8]  E8 03 10 00 00 00 00 00
 (1648944184.099503)  can0  1E5   [8]  1C 01 42 10 00 00 00 AB
 (1648944184.099677)  can0  014   [5]  00 00 00 10 27
 (1648944184.106885)  can0  012   [8]  E8 03 10 00 00 00 00 00
 (1648944184.109507)  can0  1E5   [8]  1C 01 42 30 00 00 00 CB
 (1648944184.109707)  can0  014   [5]  00 00 00 10 27
 (1648944184.116884)  can0  012   [8]  E8 03 10 00 00 00 00 00
 (1648944184.119568)  can0  1E5   [8]  1C 01 42 50 00 00 00 EB
 (1648944184.119677)  can0  014   [5]  00 00 00 10 27
 (1648944184.126875)  can0  012   [8]  E8 03 10 00 00 00 00 00
 (1648944184.129488)  can0  1E5   [8]  1C 01 42 70 00 00 01 0B
 (1648944184.129684)  can0  014   [5]  00 00 00 10 27
 (1648944184.136894)  can0  012   [8]  E8 03 10 00 00 00 00 00
 (1648944184.139485)  can0  1E5   [8]  1C 01 44 10 01 00 00 AE
 (1648944184.139683)  can0  014   [5]  00 00 00 10 27
 (1648944184.146887)  can0  012   [8]  E8 03 10 00 00 00 00 00
 (1648944184.149489)  can0  1E5   [8]  1C 01 44 30 01 00 00 CE
 (1648944184.149691)  can0  014   [5]  00 00 00 10 27
 (1648944184.156884)  can0  012   [8]  E8 03 10 00 00 00 00 00
 (1648944184.159343)  can0  010   [4]  26 73 00 00
 (1648944184.159505)  can0  1E5   [8]  1C 01 45 50 02 00 00 F0
 (1648944184.159757)  can0  005   [8]  00 00 00 00 00 00 00 00
 (1648944184.159933)  can0  014   [5]  00 00 00 14 27
 (1648944184.166920)  can0  012   [8]  E8 03 10 00 00 00 00 00
 (1648944184.169491)  can0  1E5   [8]  1C 01 44 70 00 00 01 0D
 (1648944184.169684)  can0  014   [5]  00 00 00 10 27
 (1648944184.176890)  can0  012   [8]  E8 03 10 00 00 00 00 00
 (1648944184.179527)  can0  1E5   [8]  1C 01 45 10 00 00 00 AE
 (1648944184.179730)  can0  014   [5]  00 00 00 0C 27
 (1648944184.186820)  can0  012   [8]  E8 03 10 00 00 00 00 00
 (1648944184.189500)  can0  1E5   [8]  1C 01 45 30 00 00 00 CE
 (1648944184.189685)  can0  014   [5]  00 00 00 10 27
 (1648944184.196921)  can0  012   [8]  E8 03 10 00 00 00 00 00
 (1648944184.199497)  can0  1E5   [8]  1C 01 45 50 00 00 00 EE
 (1648944184.199659)  can0  014   [5]  00 00 00 10 27
 (1648944184.206838)  can0  012   [8]  E8 03 10 00 00 00 00 00
 (1648944184.209491)  can0  1E5   [8]  1C 01 45 70 00 00 01 0E
 (1648944184.209679)  can0  014   [5]  00 00 00 10 27
 (1648944184.216897)  can0  012   [8]  E8 03 10 00 00 00 00 00
 (1648944184.219542)  can0  1E5   [8]  1C 01 45 10 00 00 00 AE
 (1648944184.219690)  can0  014   [5]  00 00 00 10 27
 (1648944184.226846)  can0  012   [8]  E8 03 10 00 00 00 00 00
 (1648944184.229505)  can0  1E5   [8]  1C 01 47 30 01 00 00 D1
 (1648944184.229687)  can0  014   [5]  00 00 00 10 27
 (1648944184.236892)  can0  012   [8]  E8 03 10 00 00 00 00 00
 (1648944184.239495)  can0  1E5   [8]  1C 01 45 50 00 00 00 EE
 (1648944184.239687)  can0  014   [5]  00 00 00 10 27
 (1648944184.246940)  can0  012   [8]  E8 03 10 00 00 00 00 00
 (1648944184.249491)  can0  1E5   [8]  1C 01 45 70 00 00 01 0E
 (1648944184.249690)  can0  014   [5]  00 00 00 10 27
 (1648944184.256868)  can0  012   [8]  E8 03 10 00 00 00 00 00
 (1648944184.259686)  can0  010   [4]  26 73 00 00
 (1648944184.259694)  can0  1E5   [8]  1C 01 47 10 00 00 00 B0
 (1648944184.259788)  can0  005   [8]  00 00 00 00 00 00 00 00
 (1648944184.259940)  can0  014   [5]  00 00 00 14 27
 (1648944184.266904)  can0  012   [8]  E8 03 10 00 00 00 00 00
 (1648944184.269502)  can0  1E5   [8]  1C 01 45 30 00 00 00 CE
 (1648944184.269691)  can0  014   [5]  00 F0 FF 10 27
 (1648944184.276886)  can0  012   [8]  E8 03 10 00 00 00 00 00
 (1648944184.279494)  can0  1E5   [8]  1C 01 45 50 00 00 00 EE
 (1648944184.279701)  can0  014   [5]  00 00 00 0C 27
 (1648944184.286852)  can0  012   [8]  E8 03 10 00 00 00 00 00
 (1648944184.289500)  can0  1E5   [8]  1C 01 45 70 00 00 01 0E
 (1648944184.289689)  can0  014   [5]  00 00 00 10 27
 (1648944184.296888)  can0  012   [8]  E8 03 10 00 00 00 00 00
 (1648944184.299545)  can0  1E5   [8]  1C 01 45 10 00 00 00 AE
 (1648944184.299714)  can0  014   [5]  00 00 00 10 27
 (1648944184.306855)  can0  012   [8]  E8 03 10 00 00 00 00 00
 (1648944184.309518)  can0  1E5   [8]  1C 01 45 30 00 00 00 CE
 (1648944184.309693)  can0  014   [5]  00 00 00 10 27
 (1648944184.316886)  can0  012   [8]  E8 03 10 00 00 00 00 00
 (1648944184.319499)  can0  1E5   [8]  1C 01 45 50 00 00 00 EE
 (1648944184.319694)  can0  014   [5]  00 00 00 10 27
 (1648944184.326902)  can0  012   [8]  E8 03 10 00 00 00 00 00
 (1648944184.329500)  can0  1E5   [8]  1C 01 45 70 00 00 01 0E
 (1648944184.329672)  can0  014   [5]  00 00 00 10 27
 (1648944184.336874)  can0  012   [8]  E8 03 10 00 00 00 00 00
 (1648944184.339496)  can0  1E5   [8]  1C 01 45 10 00 00 00 AE
 (1648944184.339695)  can0  014   [5]  00 00 00 10 27
 (1648944184.346901)  can0  012   [8]  E8 03 10 00 00 00 00 00
 (1648944184.349495)  can0  1E5   [8]  1C 01 45 30 00 00 00 CE
 (1648944184.349674)  can0  014   [5]  00 00 00 10 27
 (1648944184.356872)  can0  012   [8]  E8 03 10 00 00 00 00 00
 (1648944184.359315)  can0  010   [4]  26 73 00 00
 (1648944184.359520)  can0  1E5   [8]  1C 01 47 50 00 00 00 F0
 (1648944184.359771)  can0  005   [8]  00 00 00 00 00 00 00 00
 (1648944184.359947)  can0  014   [5]  00 00 00 14 27
 (1648944184.366890)  can0  012   [8]  E8 03 10 00 00 00 00 00
 (1648944184.369496)  can0  1E5   [8]  1C 01 47 70 00 00 01 10
 (1648944184.369695)  can0  014   [5]  00 00 00 10 27
 (1648944184.376899)  can0  012   [8]  E8 03 10 00 00 00 00 00
 (1648944184.379506)  can0  1E5   [8]  1C 01 47 10 00 00 00 B0
 (1648944184.379679)  can0  014   [5]  00 00 00 0C 27
 (1648944184.387181)  can0  012   [8]  E8 03 10 00 00 00 00 00
 (1648944184.389990)  can0  1E5   [8]  1C 01 47 30 00 00 00 D0
 (1648944184.390193)  can0  014   [5]  00 00 00 10 27
 (1648944184.396910)  can0  012   [8]  E8 03 10 00 00 00 00 00
 (1648944184.399512)  can0  1E5   [8]  1C 01 47 50 00 00 00 F0
 (1648944184.399685)  can0  014   [5]  00 00 00 10 27
 (1648944184.406880)  can0  012   [8]  E8 03 10 00 00 00 00 00
 (1648944184.409507)  can0  1E5   [8]  1C 01 47 70 00 00 01 10
 (1648944184.409681)  can0  014   [5]  00 00 00 10 27
 (1648944184.416868)  can0  012   [8]  E8 03 10 00 00 00 00 00
 (1648944184.419506)  can0  1E5   [8]  1C 01 47 10 00 00 00 B0
 (1648944184.419698)  can0  014   [5]  00 00 00 10 27
 (1648944184.426893)  can0  012   [8]  E8 03 10 00 00 00 00 00
 (1648944184.429496)  can0  1E5   [8]  1C 01 47 30 00 00 00 D0
 (1648944184.429689)  can0  014   [5]  00 00 00 10 27
 (1648944184.436894)  can0  012   [8]  E8 03 10 00 00 00 00 00
 (1648944184.439537)  can0  1E5   [8]  1C 01 47 50 00 00 00 F0
 (1648944184.439693)  can0  014   [5]  00 00 00 10 27
 (1648944184.446882)  can0  012   [8]  E8 03 10 00 00 00 00 00
 (1648944184.449534)  can0  1E5   [8]  1C 01 47 70 00 00 01 10
 (1648944184.449667)  can0  014   [5]  00 00 00 10 27
 (1648944184.456885)  can0  012   [8]  E8 03 10 00 00 00 00 00
 (1648944184.459308)  can0  010   [4]  26 73 00 00
 (1648944184.459491)  can0  1E5   [8]  1C 01 45 10 00 00 00 AE
 (1648944184.459768)  can0  005   [8]  00 00 00 00 00 00 00 00
 (1648944184.459987)  can0  014   [5]  00 00 00 14 27
 (1648944184.466891)  can0  012   [8]  E8 03 10 00 00 00 00 00
 (1648944184.469535)  can0  1E5   [8]  1C 01 45 30 00 00 00 CE
 (1648944184.469664)  can0  014   [5]  00 00 00 10 27
 (1648944184.476843)  can0  012   [8]  E8 03 10 00 00 00 00 00
 (1648944184.479492)  can0  1E5   [8]  1C 01 44 5F FF 00 01 FB
 (1648944184.479667)  can0  014   [5]  00 00 00 0C 27
 (1648944184.486867)  can0  012   [8]  E8 03 10 00 00 00 00 00
 (1648944184.489531)  can0  1E5   [8]  1C 01 44 7F FF 00 02 1B
 (1648944184.489665)  can0  014   [5]  00 00 00 10 27
 (1648944184.496884)  can0  012   [8]  E8 03 10 00 00 00 00 00
 (1648944184.499493)  can0  1E5   [8]  1C 01 44 1F FF 00 01 BB
 (1648944184.499665)  can0  014   [5]  00 00 00 10 27
 (1648944184.506825)  can0  012   [8]  E8 03 10 00 00 00 00 00
 (1648944184.509536)  can0  1E5   [8]  1C 01 44 3F FF 00 01 DB
 (1648944184.509718)  can0  014   [5]  00 00 00 10 27
 (1648944184.516883)  can0  012   [8]  E8 03 10 00 00 00 00 00
 (1648944184.519525)  can0  1E5   [8]  1C 01 44 5F FF 00 01 FB
 (1648944184.519669)  can0  014   [5]  00 00 00 10 27
 (1648944184.526940)  can0  012   [8]  E8 03 10 00 00 00 00 00
 (1648944184.529512)  can0  1E5   [8]  1C 01 42 7F FE 00 02 18
 (1648944184.529679)  can0  014   [5]  00 00 00 10 27
 (1648944184.536859)  can0  012   [8]  E8 03 10 00 00 00 00 00
 (1648944184.539511)  can0  1E5   [8]  1C 01 42 1F FE 00 01 B8
 (1648944184.539714)  can0  014   [5]  00 00 00 10 27
 (1648944184.546888)  can0  012   [8]  E8 03 10 00 00 00 00 00
 (1648944184.549515)  can0  1E5   [8]  1C 01 44 30 00 00 00 CD
 (1648944184.549712)  can0  014   [5]  00 00 00 10 27
 (1648944184.556916)  can0  012   [8]  E8 03 10 00 00 00 00 00
 (1648944184.559342)  can0  010   [4]  26 73 00 00
 (1648944184.559507)  can0  1E5   [8]  1C 01 44 50 00 00 00 ED
 (1648944184.559783)  can0  005   [8]  00 00 00 00 00 00 00 00
 (1648944184.559958)  can0  014   [5]  00 00 00 14 27
 (1648944184.566918)  can0  012   [8]  E8 03 10 00 00 00 00 00
 (1648944184.569515)  can0  1E5   [8]  1C 01 44 70 00 00 01 0D
 (1648944184.569684)  can0  014   [5]  00 00 00 10 27
 (1648944184.576895)  can0  012   [8]  E8 03 10 00 00 00 00 00
 (1648944184.579592)  can0  1E5   [8]  1C 01 44 10 00 00 00 AD
 (1648944184.579679)  can0  014   [5]  00 00 00 0C 27
 (1648944184.586895)  can0  012   [8]  E8 03 10 00 00 00 00 00
 (1648944184.589528)  can0  1E5   [8]  1C 01 44 30 00 00 00 CD
 (1648944184.589694)  can0  014   [5]  00 00 00 10 27
 (1648944184.597202)  can0  012   [8]  E8 03 10 00 00 00 00 00
 (1648944184.599537)  can0  1E5   [8]  1C 01 44 50 00 00 00 ED
 (1648944184.599688)  can0  014   [5]  00 00 00 10 27
 (1648944184.606882)  can0  012   [8]  E8 03 10 00 00 00 00 00
 (1648944184.609523)  can0  1E5   [8]  1C 01 44 70 00 00 01 0D
 (1648944184.609686)  can0  014   [5]  00 00 00 10 27
 (1648944184.616882)  can0  012   [8]  E8 03 10 00 00 00 00 00
 (1648944184.619521)  can0  1E5   [8]  1C 01 45 10 01 00 00 AF
 (1648944184.619689)  can0  014   [5]  00 00 00 10 27
 (1648944184.626874)  can0  012   [8]  E8 03 10 00 00 00 00 00
 (1648944184.629515)  can0  1E5   [8]  1C 01 45 30 01 00 00 CF
 (1648944184.629687)  can0  014   [5]  00 00 00 10 27
 (1648944184.636963)  can0  012   [8]  E8 03 10 00 00 00 00 00
 (1648944184.639571)  can0  1E5   [8]  1C 01 45 50 01 00 00 EF
 (1648944184.639692)  can0  014   [5]  00 00 00 10 27
 (1648944184.646932)  can0  012   [8]  E8 03 10 00 00 00 00 00
 (1648944184.649573)  can0  1E5   [8]  1C 01 45 70 01 00 01 0F
 (1648944184.649684)  can0  014   [5]  00 00 00 10 27
 (1648944184.656922)  can0  012   [8]  E8 03 10 00 00 00 00 00
 (1648944184.659292)  can0  010   [4]  26 73 00 00
 (1648944184.659547)  can0  1E5   [8]  1C 01 45 10 01 00 00 AF
 (1648944184.659776)  can0  005   [8]  00 00 00 00 00 00 00 00
 (1648944184.659993)  can0  014   [5]  00 00 00 14 27
 (1648944184.666954)  can0  012   [8]  E8 03 10 00 00 00 00 00
 (1648944184.667003)  can0  0E3   [2]  90 01
 (1648944184.669522)  can0  1E5   [8]  1C 01 45 30 01 00 00 CF
 (1648944184.669695)  can0  014   [5]  00 00 00 13 27
 (1648944184.676874)  can0  012   [8]  E8 03 10 00 00 00 00 00
 (1648944184.679579)  can0  1E5   [8]  1C 01 45 50 01 00 00 EF
 (1648944184.679688)  can0  014   [5]  00 00 00 09 27
 (1648944184.686868)  can0  012   [8]  E8 03 10 00 00 00 00 00
 (1648944184.689576)  can0  1E5   [8]  1C 01 45 70 01 00 01 0F
 (1648944184.689696)  can0  014   [5]  00 00 00 10 27
 (1648944184.696898)  can0  012   [8]  E8 03 10 00 00 00 00 00
 (1648944184.699744)  can0  1E5   [8]  1C 01 45 10 01 00 00 AF
 (1648944184.699754)  can0  014   [5]  00 00 00 10 27
 (1648944184.706897)  can0  012   [8]  E8 03 10 00 00 00 00 00
 (1648944184.709536)  can0  1E5   [8]  1C 01 45 30 01 00 00 CF
 (1648944184.709701)  can0  014   [5]  00 00 00 10 27
 (1648944184.716901)  can0  012   [8]  E8 03 10 00 00 00 00 00
 (1648944184.719527)  can0  1E5   [8]  1C 01 45 50 00 00 00 EE
 (1648944184.719716)  can0  014   [5]  00 00 00 10 27
 (1648944184.726917)  can0  012   [8]  E8 03 10 00 00 00 00 00
 (1648944184.729536)  can0  1E5   [8]  1C 01 47 70 01 00 01 11
 (1648944184.729742)  can0  014   [5]  00 00 00 10 27
 (1648944184.736922)  can0  012   [8]  E8 03 10 00 00 00 00 00
 (1648944184.739527)  can0  1E5   [8]  1C 01 45 10 00 00 00 AE
 (1648944184.739737)  can0  014   [5]  00 00 00 10 27
 (1648944184.746928)  can0  012   [8]  E8 03 10 00 00 00 00 00
 (1648944184.749527)  can0  1E5   [8]  1C 01 47 30 00 00 00 D0
 (1648944184.749751)  can0  014   [5]  00 00 00 10 27
 (1648944184.756883)  can0  012   [8]  E8 03 10 00 00 00 00 00
 (1648944184.759397)  can0  010   [4]  26 73 00 00
 (1648944184.759529)  can0  1E5   [8]  1C 01 47 50 00 00 00 F0
 (1648944184.759772)  can0  005   [8]  00 00 00 00 00 00 00 00
 (1648944184.759980)  can0  014   [5]  00 00 00 14 27
 (1648944184.766892)  can0  012   [8]  E8 03 10 00 00 00 00 00
 (1648944184.769521)  can0  1E5   [8]  1C 01 47 70 00 00 01 10
 (1648944184.769691)  can0  014   [5]  00 00 00 10 27
 (1648944184.776909)  can0  012   [8]  E8 03 10 00 00 00 00 00
 (1648944184.779578)  can0  1E5   [8]  1C 01 47 10 00 00 00 B0
 (1648944184.779781)  can0  014   [5]  00 00 00 0C 27
 (1648944184.786852)  can0  012   [8]  E8 03 10 00 00 00 00 00
 (1648944184.789525)  can0  1E5   [8]  1C 01 47 30 00 00 00 D0
 (1648944184.789694)  can0  014   [5]  00 00 00 10 27
 (1648944184.796932)  can0  012   [8]  E8 03 10 00 00 00 00 00
 (1648944184.799529)  can0  1E5   [8]  1C 01 47 50 00 00 00 F0
 (1648944184.799749)  can0  014   [5]  00 00 00 10 27
 (1648944184.806881)  can0  012   [8]  E8 03 10 00 00 00 00 00
 (1648944184.809583)  can0  1E5   [8]  1C 01 47 70 00 00 01 10
 (1648944184.809750)  can0  014   [5]  00 00 00 10 27
 (1648944184.816905)  can0  012   [8]  E8 03 10 00 00 00 00 00
 (1648944184.819532)  can0  1E5   [8]  1C 01 47 10 00 00 00 B0
 (1648944184.819751)  can0  014   [5]  00 00 00 10 27
 (1648944184.826880)  can0  012   [8]  E8 03 10 00 00 00 00 00
 (1648944184.829585)  can0  1E5   [8]  1C 01 47 30 00 00 00 D0
 (1648944184.829746)  can0  014   [5]  00 00 00 10 27
 (1648944184.836918)  can0  012   [8]  E8 03 10 00 00 00 00 00
 (1648944184.839540)  can0  1E5   [8]  1C 01 47 50 00 00 00 F0
 (1648944184.839676)  can0  014   [5]  00 00 00 10 27
 (1648944184.846856)  can0  012   [8]  E8 03 10 00 00 00 00 00
 (1648944184.849526)  can0  1E5   [8]  1C 01 47 70 00 00 01 10
 (1648944184.849710)  can0  014   [5]  00 00 00 10 27
 (1648944184.856910)  can0  012   [8]  E8 03 10 00 00 00 00 00
 (1648944184.859361)  can0  010   [4]  26 73 00 00
 (1648944184.859525)  can0  1E5   [8]  1C 01 47 10 00 00 00 B0
 (1648944184.859778)  can0  005   [8]  00 00 00 00 00 00 00 00
 (1648944184.859953)  can0  014   [5]  00 00 00 14 27
 (1648944184.860102)  can0  0E2   [2]  90 01
 (1648944184.860225)  can0  0E4   [2]  90 01
 (1648944184.866966)  can0  012   [8]  E8 03 10 00 00 00 00 00
 (1648944184.869528)  can0  1E5   [8]  1C 01 45 30 00 00 00 CE
 (1648944184.869703)  can0  014   [5]  00 00 00 13 27
 (1648944184.876934)  can0  012   [8]  E8 03 10 00 00 00 00 00
 (1648944184.879536)  can0  1E5   [8]  1C 01 45 50 00 00 00 EE
 (1648944184.879676)  can0  014   [5]  00 00 00 09 27
 (1648944184.886996)  can0  012   [8]  E8 03 10 00 00 00 00 00
 (1648944184.889566)  can0  1E5   [8]  1C 01 47 70 00 00 01 10
 (1648944184.889810)  can0  014   [5]  00 00 00 10 27
 (1648944184.896862)  can0  012   [8]  E8 03 10 00 00 00 00 00
 (1648944184.899542)  can0  1E5   [8]  1C 01 47 10 00 00 00 B0
 (1648944184.899743)  can0  014   [5]  00 00 00 10 27
 (1648944184.906868)  can0  012   [8]  E8 03 10 00 00 00 00 00
 (1648944184.909545)  can0  1E5   [8]  1C 01 45 30 00 00 00 CE
 (1648944184.909689)  can0  014   [5]  00 00 00 10 27
 (1648944184.916904)  can0  012   [8]  E8 03 10 00 00 00 00 00
 (1648944184.919553)  can0  1E5   [8]  1C 01 45 50 00 00 00 EE
 (1648944184.919683)  can0  014   [5]  00 00 00 10 27
 (1648944184.926876)  can0  012   [8]  E8 03 10 00 00 00 00 00
 (1648944184.929586)  can0  1E5   [8]  1C 01 45 70 00 00 01 0E
 (1648944184.929706)  can0  014   [5]  00 00 00 10 27
 (1648944184.936914)  can0  012   [8]  E8 03 10 00 00 00 00 00
 (1648944184.939534)  can0  1E5   [8]  1C 01 45 10 00 00 00 AE
 (1648944184.939683)  can0  014   [5]  00 00 00 10 27
 (1648944184.946917)  can0  012   [8]  E8 03 10 00 00 00 00 00
 (1648944184.949543)  can0  1E5   [8]  1C 01 45 30 00 00 00 CE
 (1648944184.949714)  can0  014   [5]  00 00 00 10 27
 (1648944184.956870)  can0  012   [8]  E8 03 10 00 00 00 00 00
 (1648944184.959346)  can0  010   [4]  26 73 00 00
 (1648944184.959545)  can0  1E5   [8]  1C 01 45 50 00 00 00 EE
 (1648944184.959794)  can0  005   [8]  00 00 00 00 00 00 00 00
 (1648944184.959988)  can0  014   [5]  00 00 00 14 27
 (1648944184.966892)  can0  012   [8]  E8 03 10 00 00 00 00 00
 (1648944184.969540)  can0  1E5   [8]  1C 01 45 70 00 00 01 0E
 (1648944184.969692)  can0  014   [5]  00 00 00 10 27
 (1648944184.976917)  can0  012   [8]  E8 03 10 00 00 00 00 00
 (1648944184.979609)  can0  1E5   [8]  1C 01 47 10 00 00 00 B0
 (1648944184.979720)  can0  014   [5]  00 00 00 0C 27
 (1648944184.986917)  can0  012   [8]  E8 03 10 00 00 00 00 00
 (1648944184.989593)  can0  1E5   [8]  1C 01 47 30 00 00 00 D0
 (1648944184.989712)  can0  014   [5]  00 00 00 10 27
 (1648944184.996908)  can0  012   [8]  E8 03 10 00 00 00 00 00
 (1648944184.999539)  can0  1E5   [8]  1C 01 47 50 00 00 00 F0
 (1648944184.999732)  can0  014   [5]  00 00 00 10 27
 (1648944185.006923)  can0  012   [8]  E8 03 10 00 00 00 00 00
 (1648944185.009540)  can0  1E5   [8]  1C 01 47 70 00 00 01 10
 (1648944185.009712)  can0  014   [5]  00 00 00 10 27
 (1648944185.016920)  can0  012   [8]  E8 03 10 00 00 00 00 00
 (1648944185.019547)  can0  1E5   [8]  1C 01 49 10 01 00 00 B3
 (1648944185.019731)  can0  014   [5]  00 00 00 10 27
 (1648944185.026953)  can0  012   [8]  E8 03 10 00 00 00 00 00
 (1648944185.029556)  can0  1E5   [8]  1C 01 49 30 01 00 00 D3
 (1648944185.029743)  can0  014   [5]  00 00 00 10 27
 (1648944185.036925)  can0  012   [8]  E8 03 10 00 00 00 00 00
 (1648944185.039542)  can0  1E5   [8]  1C 01 49 50 01 00 00 F3
 (1648944185.039708)  can0  014   [5]  00 00 00 10 27
 (1648944185.046951)  can0  012   [8]  E8 03 10 00 00 00 00 00
 (1648944185.049589)  can0  1E5   [8]  1C 01 49 70 01 00 01 13
 (1648944185.049741)  can0  014   [5]  00 00 00 10 27
 (1648944185.056870)  can0  012   [8]  E8 03 10 00 00 00 00 00
 (1648944185.059374)  can0  010   [4]  26 73 00 00
 (1648944185.059547)  can0  1E5   [8]  1C 01 49 10 01 00 00 B3
 (1648944185.059794)  can0  005   [8]  00 00 00 00 00 00 00 00
 (1648944185.059977)  can0  014   [5]  00 00 00 14 27
 (1648944185.066917)  can0  012   [8]  E8 03 10 00 00 00 00 00
 (1648944185.069550)  can0  1E5   [8]  1C 01 49 30 01 00 00 D3
 (1648944185.069687)  can0  014   [5]  00 00 00 10 27
 (1648944185.076913)  can0  012   [8]  E8 03 10 00 00 00 00 00
 (1648944185.079580)  can0  1E5   [8]  1C 01 49 50 01 00 00 F3
 (1648944185.079689)  can0  014   [5]  00 00 00 0C 27
 (1648944185.086924)  can0  012   [8]  E8 03 10 00 00 00 00 00
 (1648944185.089560)  can0  1E5   [8]  1C 01 49 70 01 00 01 13
 (1648944185.089741)  can0  014   [5]  00 00 00 10 27
 (1648944185.096963)  can0  012   [8]  E8 03 10 00 00 00 00 00
 (1648944185.099592)  can0  1E5   [8]  1C 01 49 10 01 00 00 B3
 (1648944185.099690)  can0  014   [5]  00 00 00 10 27
 (1648944185.106927)  can0  012   [8]  E8 03 10 00 00 00 00 00
 (1648944185.109547)  can0  1E5   [8]  1C 01 49 30 01 00 00 D3
 (1648944185.109718)  can0  014   [5]  00 00 00 10 27
 (1648944185.116925)  can0  012   [8]  E8 03 10 00 00 00 00 00
 (1648944185.119610)  can0  1E5   [8]  1C 01 49 50 00 00 00 F2
 (1648944185.119695)  can0  014   [5]  00 00 00 10 27
 (1648944185.126942)  can0  012   [8]  E8 03 10 00 00 00 00 00
 (1648944185.129604)  can0  1E5   [8]  1C 01 49 70 00 00 01 12
 (1648944185.129698)  can0  014   [5]  00 00 00 10 27
 (1648944185.136921)  can0  012   [8]  E8 03 10 00 00 00 00 00
 (1648944185.139572)  can0  1E5   [8]  1C 01 47 10 00 00 00 B0
 (1648944185.139725)  can0  014   [5]  00 00 00 10 27
 (1648944185.146934)  can0  012   [8]  E8 03 10 00 00 00 00 00
 (1648944185.149602)  can0  1E5   [8]  1C 01 47 30 00 00 00 D0
 (1648944185.149719)  can0  014   [5]  00 00 00 10 27
 (1648944185.156919)  can0  012   [8]  E8 03 10 00 00 00 00 00
 (1648944185.159357)  can0  010   [4]  26 73 00 00
 (1648944185.159557)  can0  1E5   [8]  1C 01 47 50 00 00 00 F0
 (1648944185.159806)  can0  005   [8]  00 00 00 00 00 00 00 00
 (1648944185.159972)  can0  014   [5]  00 00 00 14 27
 (1648944185.166942)  can0  012   [8]  E8 03 10 00 00 00 00 00
 (1648944185.169608)  can0  1E5   [8]  1C 01 47 70 00 00 01 10
 (1648944185.169700)  can0  014   [5]  00 00 00 10 27
 (1648944185.176924)  can0  012   [8]  E8 03 10 00 00 00 00 00
 (1648944185.179550)  can0  1E5   [8]  1C 01 47 10 00 00 00 B0
 (1648944185.179704)  can0  014   [5]  00 00 00 0C 27
 (1648944185.186929)  can0  012   [8]  E8 03 10 00 00 00 00 00
 (1648944185.189606)  can0  1E5   [8]  1C 01 47 30 00 00 00 D0
 (1648944185.189700)  can0  014   [5]  00 00 00 10 27
 (1648944185.196923)  can0  012   [8]  E8 03 10 00 00 00 00 00
 (1648944185.199595)  can0  1E5   [8]  1C 01 47 50 00 00 00 F0
 (1648944185.199754)  can0  014   [5]  00 00 00 10 27
 (1648944185.206904)  can0  012   [8]  E8 03 10 00 00 00 00 00
 (1648944185.209604)  can0  1E5   [8]  1C 01 47 70 00 00 01 10
 (1648944185.209761)  can0  014   [5]  00 00 00 10 27
 (1648944185.216963)  can0  012   [8]  E8 03 10 00 00 00 00 00
 (1648944185.219608)  can0  1E5   [8]  1C 01 47 10 00 00 00 B0
 (1648944185.219694)  can0  014   [5]  00 00 00 10 27
 (1648944185.226934)  can0  012   [8]  E8 03 10 00 00 00 00 00
 (1648944185.229556)  can0  1E5   [8]  1C 01 47 30 00 00 00 D0
 (1648944185.229705)  can0  014   [5]  00 00 00 10 27
 (1648944185.236945)  can0  012   [8]  E8 03 10 00 00 00 00 00
 (1648944185.239604)  can0  1E5   [8]  1C 01 47 50 00 00 00 F0
 (1648944185.239705)  can0  014   [5]  00 00 00 10 27
 (1648944185.246938)  can0  012   [8]  E8 03 10 00 00 00 00 00
 (1648944185.249603)  can0  1E5   [8]  1C 01 47 70 00 00 01 10
 (1648944185.249756)  can0  014   [5]  00 00 00 10 27
 (1648944185.256944)  can0  012   [8]  E8 03 10 00 00 00 00 00
 (1648944185.259361)  can0  010   [4]  26 73 00 00
 (1648944185.259607)  can0  1E5   [8]  1C 01 47 10 00 00 00 B0
 (1648944185.259803)  can0  005   [8]  00 00 00 00 00 00 00 00
 (1648944185.259978)  can0  014   [5]  00 00 00 14 27
 (1648944185.266934)  can0  012   [8]  E8 03 10 00 00 00 00 00
 (1648944185.269556)  can0  1E5   [8]  1C 01 47 30 00 00 00 D0
 (1648944185.269761)  can0  014   [5]  00 00 00 10 27
 (1648944185.276941)  can0  012   [8]  E8 03 10 00 00 00 00 00
 (1648944185.279709)  can0  1E5   [8]  1C 01 47 50 00 00 00 F0
 (1648944185.279720)  can0  014   [5]  00 00 00 0C 27
 (1648944185.286896)  can0  012   [8]  E8 03 10 00 00 00 00 00
 (1648944185.289611)  can0  1E5   [8]  1C 01 47 70 00 00 01 10
 (1648944185.289700)  can0  014   [5]  00 00 00 10 27
 (1648944185.296937)  can0  012   [8]  E8 03 10 00 00 00 00 00
 (1648944185.299722)  can0  1E5   [8]  1C 01 47 10 00 00 00 B0
 (1648944185.299731)  can0  014   [5]  00 00 00 10 27
 (1648944185.306936)  can0  012   [8]  E8 03 10 00 00 00 00 00
 (1648944185.309602)  can0  1E5   [8]  1C 01 47 30 00 00 00 D0
 (1648944185.309704)  can0  014   [5]  00 00 00 10 27
 (1648944185.316939)  can0  012   [8]  E8 03 10 00 00 00 00 00
 (1648944185.319606)  can0  1E5   [8]  1C 01 47 50 00 00 00 F0
 (1648944185.319705)  can0  014   [5]  00 00 00 10 27
 (1648944185.326983)  can0  012   [8]  E8 03 10 00 00 00 00 00
 (1648944185.329598)  can0  1E5   [8]  1C 01 47 70 00 00 01 10
 (1648944185.329708)  can0  014   [5]  00 00 00 10 27
 (1648944185.336886)  can0  012   [8]  E8 03 10 00 00 00 00 00
 (1648944185.339619)  can0  1E5   [8]  1C 01 47 10 00 00 00 B0
 (1648944185.339690)  can0  014   [5]  00 00 00 10 27
 (1648944185.346943)  can0  012   [8]  E8 03 10 00 00 00 00 00
 (1648944185.349584)  can0  1E5   [8]  1C 01 47 30 00 00 00 D0
 (1648944185.349708)  can0  014   [5]  00 00 00 10 27
 (1648944185.356933)  can0  012   [8]  E8 03 10 00 00 00 00 00
 (1648944185.359365)  can0  010   [4]  26 73 00 00
 (1648944185.359560)  can0  1E5   [8]  1C 01 47 50 00 00 00 F0
 (1648944185.359786)  can0  005   [8]  00 00 00 00 00 00 00 00
 (1648944185.359987)  can0  014   [5]  00 00 00 14 27
 (1648944185.366941)  can0  012   [8]  E8 03 10 00 00 00 00 00
 (1648944185.369612)  can0  1E5   [8]  1C 01 47 70 00 00 01 10
 (1648944185.369707)  can0  014   [5]  00 00 00 10 27
 (1648944185.376953)  can0  012   [8]  E8 03 10 00 00 00 00 00
 (1648944185.379580)  can0  1E5   [8]  1C 01 47 10 00 00 00 B0
 (1648944185.379711)  can0  014   [5]  00 00 00 0C 27
 (1648944185.386954)  can0  012   [8]  E8 03 10 00 00 00 00 00
 (1648944185.389610)  can0  1E5   [8]  1C 01 47 30 00 00 00 D0
 (1648944185.389737)  can0  014   [5]  00 00 00 10 27
 (1648944185.396937)  can0  012   [8]  E8 03 10 00 00 00 00 00
 (1648944185.399564)  can0  1E5   [8]  1C 01 47 50 00 00 00 F0
 (1648944185.399743)  can0  014   [5]  00 00 00 10 27
 (1648944185.407142)  can0  012   [8]  E8 03 10 00 00 00 00 00
 (1648944185.409991)  can0  1E5   [8]  1C 01 47 70 00 00 01 10
 (1648944185.409998)  can0  014   [5]  00 00 00 10 27
 (1648944185.416946)  can0  012   [8]  E8 03 10 00 00 00 00 00
 (1648944185.419574)  can0  1E5   [8]  1C 01 47 10 00 00 00 B0
 (1648944185.419722)  can0  014   [5]  00 00 00 10 27
 (1648944185.426945)  can0  012   [8]  E8 03 10 00 00 00 00 00
 (1648944185.429611)  can0  1E5   [8]  1C 01 47 30 00 00 00 D0
 (1648944185.429779)  can0  014   [5]  00 00 00 10 27
 (1648944185.436954)  can0  012   [8]  E8 03 10 00 00 00 00 00
 (1648944185.439577)  can0  1E5   [8]  1C 01 47 50 00 00 00 F0
 (1648944185.439770)  can0  014   [5]  00 00 00 10 27
 (1648944185.446951)  can0  012   [8]  E8 03 10 00 00 00 00 00
 (1648944185.449618)  can0  1E5   [8]  1C 01 47 70 00 00 01 10
 (1648944185.449766)  can0  014   [5]  00 00 00 10 27
 (1648944185.457212)  can0  012   [8]  E8 03 10 00 00 00 00 00
 (1648944185.459363)  can0  010   [4]  26 73 00 00
 (1648944185.459579)  can0  1E5   [8]  1C 01 47 10 00 00 00 B0
 (1648944185.459787)  can0  005   [8]  00 00 00 00 00 00 00 00
 (1648944185.460014)  can0  014   [5]  00 00 00 14 27
 (1648944185.466951)  can0  012   [8]  E8 03 10 00 00 00 00 00
 (1648944185.469572)  can0  1E5   [8]  1C 01 47 30 00 00 00 D0
 (1648944185.469725)  can0  014   [5]  00 00 00 10 27
 (1648944185.476910)  can0  012   [8]  E8 03 10 00 00 00 00 00
 (1648944185.479624)  can0  1E5   [8]  1C 01 47 50 00 00 00 F0
 (1648944185.479700)  can0  014   [5]  00 00 00 0C 27
 (1648944185.486897)  can0  012   [8]  E8 03 10 00 00 00 00 00
 (1648944185.489628)  can0  1E5   [8]  1C 01 47 70 00 00 01 10
 (1648944185.489726)  can0  014   [5]  00 00 00 10 27
 (1648944185.496949)  can0  012   [8]  E8 03 10 00 00 00 00 00
 (1648944185.499623)  can0  1E5   [8]  1C 01 47 10 00 00 00 B0
 (1648944185.499786)  can0  014   [5]  00 00 00 10 27
 (1648944185.506954)  can0  012   [8]  E8 03 10 00 00 00 00 00
 (1648944185.509720)  can0  1E5   [8]  1C 01 47 30 00 00 00 D0
 (1648944185.509730)  can0  014   [5]  00 00 00 10 27
 (1648944185.516996)  can0  012   [8]  E8 03 10 00 00 00 00 00
 (1648944185.519573)  can0  1E5   [8]  1C 01 47 50 00 00 00 F0
 (1648944185.519722)  can0  014   [5]  00 00 00 10 27
 (1648944185.526953)  can0  012   [8]  E8 03 10 00 00 00 00 00
 (1648944185.529634)  can0  1E5   [8]  1C 01 47 70 00 00 01 10
 (1648944185.529720)  can0  014   [5]  00 00 00 10 27
 (1648944185.536930)  can0  012   [8]  E8 03 10 00 00 00 00 00
 (1648944185.539581)  can0  1E5   [8]  1C 01 47 10 00 00 00 B0
 (1648944185.539791)  can0  014   [5]  00 00 00 10 27
 (1648944185.546929)  can0  012   [8]  E8 03 10 00 00 00 00 00
 (1648944185.549735)  can0  1E5   [8]  1C 01 47 30 00 00 00 D0
 (1648944185.549746)  can0  014   [5]  00 00 00 10 27
 (1648944185.556918)  can0  012   [8]  E8 03 10 00 00 00 00 00
 (1648944185.559330)  can0  010   [4]  26 73 00 00
 (1648944185.559577)  can0  1E5   [8]  1C 01 47 50 00 00 00 F0
 (1648944185.559825)  can0  005   [8]  00 00 00 00 00 00 00 00
 (1648944185.559998)  can0  014   [5]  00 00 00 14 27
 (1648944185.567020)  can0  012   [8]  E8 03 10 00 00 00 00 00
 (1648944185.569599)  can0  1E5   [8]  1C 01 47 70 00 00 01 10
 (1648944185.569720)  can0  014   [5]  00 00 00 10 27
 (1648944185.576960)  can0  012   [8]  E8 03 10 00 00 00 00 00
 (1648944185.579516)  can0  1E5   [8]  1C 01 47 10 00 00 00 B0
 (1648944185.579705)  can0  014   [5]  00 00 00 0C 27
 (1648944185.586959)  can0  012   [8]  E8 03 10 00 00 00 00 00
 (1648944185.589633)  can0  1E5   [8]  1C 01 47 30 00 00 00 D0
 (1648944185.589701)  can0  014   [5]  00 00 00 10 27
 (1648944185.597456)  can0  012   [8]  E8 03 10 00 00 00 00 00
 (1648944185.599606)  can0  1E5   [8]  1C 01 47 50 00 00 00 F0
 (1648944185.599724)  can0  014   [5]  00 00 00 10 27
 (1648944185.606935)  can0  012   [8]  E8 03 10 00 00 00 00 00
 (1648944185.609631)  can0  1E5   [8]  1C 01 47 70 00 00 01 10
 (1648944185.609695)  can0  014   [5]  00 00 00 10 27
 (1648944185.616971)  can0  012   [8]  E8 03 10 00 00 00 00 00
 (1648944185.619610)  can0  1E5   [8]  1C 01 47 10 00 00 00 B0
 (1648944185.619727)  can0  014   [5]  00 00 00 10 27
 (1648944185.626906)  can0  012   [8]  E8 03 10 00 00 00 00 00
 (1648944185.629592)  can0  1E5   [8]  1C 01 47 30 00 00 00 D0
 (1648944185.629785)  can0  014   [5]  00 00 00 10 27
 (1648944185.636963)  can0  012   [8]  E8 03 10 00 00 00 00 00
 (1648944185.639641)  can0  1E5   [8]  1C 01 47 50 00 00 00 F0
 (1648944185.639717)  can0  014   [5]  00 00 00 10 27
 (1648944185.647017)  can0  012   [8]  E8 03 10 00 00 00 00 00
 (1648944185.649581)  can0  1E5   [8]  1C 01 47 70 00 00 01 10
 (1648944185.649702)  can0  014   [5]  00 00 00 10 27
 (1648944185.656997)  can0  012   [8]  E8 03 10 00 00 00 00 00
 (1648944185.659401)  can0  010   [4]  26 73 00 00
 (1648944185.659603)  can0  1E5   [8]  1C 01 47 10 00 00 00 B0
 (1648944185.659832)  can0  005   [8]  00 00 00 00 00 00 00 00
 (1648944185.660007)  can0  014   [5]  00 00 00 14 27
 (1648944185.666961)  can0  012   [8]  E8 03 10 00 00 00 00 00
 (1648944185.667041)  can0  0E3   [2]  B8 01
 (1648944185.669632)  can0  1E5   [8]  1C 01 47 30 00 00 00 D0
