 (1648944019.217818)  can0  1E5   [8]  1C 01 71 50 01 00 01 1B
 (1648944019.218302)  can0  014   [5]  00 00 00 10 27
 (1648944019.224527)  can0  012   [8]  E8 03 10 00 00 00 00 00
 (1648944019.227780)  can0  1E5   [8]  1C 01 71 70 01 00 01 3B
 (1648944019.228251)  can0  014   [5]  00 00 00 10 27
 (1648944019.234523)  can0  012   [8]  E8 03 10 00 00 00 00 00
 (1648944019.237830)  can0  1E5   [8]  1C 01 71 10 00 00 00 DA
 (1648944019.238298)  can0  014   [5]  00 00 00 10 27
 (1648944019.244528)  can0  012   [8]  E8 03 10 00 00 00 00 00
 (1648944019.247829)  can0  1E5   [8]  1C 01 71 30 00 00 00 FA
 (1648944019.248281)  can0  014   [5]  00 00 00 10 27
 (1648944019.254487)  can0  012   [8]  E8 03 10 00 00 00 00 00
 (1648944019.257824)  can0  1E5   [8]  1C 01 71 50 00 00 01 1A
 (1648944019.258303)  can0  014   [5]  00 00 00 10 27
 (1648944019.264478)  can0  012   [8]  E8 03 10 00 00 00 00 00
 (1648944019.267815)  can0  1E5   [8]  1C 01 71 70 00 00 01 3A
 (1648944019.268286)  can0  014   [5]  00 00 00 10 27
 (1648944019.274475)  can0  012   [8]  E8 03 10 00 00 00 00 00
 (1648944019.277771)  can0  1E5   [8]  1C 01 71 10 00 00 00 DA
 (1648944019.278238)  can0  014   [5]  00 00 00 10 27
 (1648944019.284505)  can0  012   [8]  E8 03 10 00 00 00 00 00
 (1648944019.287629)  can0  010   [4]  26 73 00 01
 (1648944019.287875)  can0  1E5   [8]  1C 01 71 30 00 00 00 FA
 (1648944019.288105)  can0  005   [8]  00 00 88 13 00 00 00 00
 (1648944019.288304)  can0  014   [5]  00 00 00 14 27
 (1648944019.294507)  can0  012   [8]  E8 03 10 00 00 00 00 00
 (1648944019.297783)  can0  1E5   [8]  1C 01 71 50 00 00 01 1A
 (1648944019.298263)  can0  014   [5]  00 00 00 10 27
 (1648944019.304515)  can0  012   [8]  E8 03 10 00 00 00 00 00
 (1648944019.307803)  can0  1E5   [8]  1C 01 71 70 00 00 01 3A
 (1648944019.308263)  can0  014   [5]  00 00 00 0C 27
 (1648944019.314509)  can0  012   [8]  E8 03 10 00 00 00 00 00
 (1648944019.317806)  can0  1E5   [8]  1C 01 71 10 00 00 00 DA
 (1648944019.318263)  can0  014   [5]  00 00 00 10 27
 (1648944019.324470)  can0  012   [8]  E8 03 10 00 00 00 00 00
 (1648944019.327804)  can0  1E5   [8]  1C 01 71 30 00 00 00 FA
 (1648944019.328270)  can0  014   [5]  00 00 00 10 27
 (1648944019.334470)  can0  012   [8]  E8 03 10 00 00 00 00 00
 (1648944019.337747)  can0  1E5   [8]  1C 01 71 50 00 00 01 1A
 (1648944019.338241)  can0  014   [5]  00 00 00 10 27
 (1648944019.344470)  can0  012   [8]  E8 03 10 00 00 00 00 00
 (1648944019.347831)  can0  1E5   [8]  1C 01 71 70 00 00 01 3A
 (1648944019.348266)  can0  014   [5]  00 00 00 10 27
 (1648944019.354475)  can0  012   [8]  E8 03 10 00 00 00 00 00
 (1648944019.357804)  can0  1E5   [8]  1C 01 71 10 00 00 00 DA
 (1648944019.358275)  can0  014   [5]  00 00 00 10 27
 (1648944019.364509)  can0  012   [8]  E8 03 10 00 00 00 00 00
 (1648944019.367810)  can0  1E5   [8]  1C 01 71 30 00 00 00 FA
 (1648944019.368290)  can0  014   [5]  00 00 00 10 27
 (1648944019.374470)  can0  012   [8]  E8 03 10 00 00 00 00 00
 (1648944019.377752)  can0  1E5   [8]  1C 01 71 50 00 00 01 1A
 (1648944019.378306)  can0  014   [5]  00 00 00 10 27
 (1648944019.384485)  can0  012   [8]  E8 03 10 00 00 00 00 00
 (1648944019.387599)  can0  010   [4]  26 73 00 01
 (1648944019.387842)  can0  1E5   [8]  1C 01 71 70 00 00 01 3A
 (1648944019.388093)  can0  005   [8]  00 00 88 13 00 00 00 00
 (1648944019.388267)  can0  014   [5]  00 00 00 14 27
 (1648944019.394495)  can0  012   [8]  E8 03 10 00 00 00 00 00
 (1648944019.397791)  can0  1E5   [8]  1C 01 71 10 00 00 00 DA
 (1648944019.398277)  can0  014   [5]  00 00 00 10 27
 (1648944019.404522)  can0  012   [8]  E8 03 10 00 00 00 00 00
 (1648944019.407829)  can0  1E5   [8]  1C 01 71 30 00 00 00 FA
 (1648944019.408293)  can0  014   [5]  00 00 00 0C 27
 (1648944019.414538)  can0  012   [8]  E8 03 10 00 00 00 00 00
 (1648944019.417830)  can0  1E5   [8]  1C 01 71 50 00 00 01 1A
 (1648944019.418307)  can0  014   [5]  00 00 00 10 27
 (1648944019.424481)  can0  012   [8]  E8 03 10 00 00 00 00 00
 (1648944019.427831)  can0  1E5   [8]  1C 01 71 70 00 00 01 3A
 (1648944019.428253)  can0  014   [5]  00 00 00 10 27
 (1648944019.434487)  can0  012   [8]  E8 03 10 00 00 00 00 00
 (1648944019.437783)  can0  1E5   [8]  1C 01 71 10 00 00 00 DA
 (1648944019.438259)  can0  014   [5]  00 00 00 10 27
 (1648944019.444522)  can0  012   [8]  E8 03 10 00 00 00 00 00
 (1648944019.447771)  can0  1E5   [8]  1C 01 71 30 00 00 00 FA
 (1648944019.448261)  can0  014   [5]  00 00 00 10 27
 (1648944019.454541)  can0  012   [8]  E8 03 10 00 00 00 00 00
 (1648944019.457786)  can0  1E5   [8]  1C 01 71 50 00 00 01 1A
 (1648944019.458310)  can0  014   [5]  00 00 00 10 27
 (1648944019.464491)  can0  012   [8]  E8 03 10 00 00 00 00 00
 (1648944019.467785)  can0  1E5   [8]  1C 01 71 70 00 00 01 3A
 (1648944019.468281)  can0  014   [5]  00 00 00 10 27
 (1648944019.474535)  can0  012   [8]  E8 03 10 00 00 00 00 00
 (1648944019.477764)  can0  1E5   [8]  1C 01 71 10 00 00 00 DA
 (1648944019.478289)  can0  014   [5]  00 00 00 10 27
 (1648944019.484488)  can0  012   [8]  E8 03 10 00 00 00 00 00
 (1648944019.487661)  can0  010   [4]  26 73 00 01
 (1648944019.487866)  can0  1E5   [8]  1C 01 71 30 00 00 00 FA
 (1648944019.488103)  can0  005   [8]  00 00 88 13 00 00 00 00
 (1648944019.488275)  can0  014   [5]  00 00 00 14 27
 (1648944019.494487)  can0  012   [8]  E8 03 10 00 00 00 00 00
 (1648944019.494611)  can0  0E3   [2]  B2 01
 (1648944019.497769)  can0  1E5   [8]  1C 01 71 50 00 00 01 1A
 (1648944019.498260)  can0  014   [5]  00 00 00 13 27
 (1648944019.504490)  can0  012   [8]  E8 03 10 00 00 00 00 00
 (1648944019.507847)  can0  1E5   [8]  1C 01 71 70 00 00 01 3A
 (1648944019.508257)  can0  014   [5]  00 00 00 09 27
 (1648944019.514496)  can0  012   [8]  E8 03 10 00 00 00 00 00
 (1648944019.517775)  can0  1E5   [8]  1C 01 71 10 00 00 00 DA
 (1648944019.518257)  can0  014   [5]  00 00 00 10 27
 (1648944019.524488)  can0  012   [8]  E8 03 10 00 00 00 00 00
 (1648944019.527797)  can0  1E5   [8]  1C 01 71 30 00 00 00 FA
 (1648944019.528257)  can0  014   [5]  00 00 00 10 27
 (1648944019.534515)  can0  012   [8]  E8 03 10 00 00 00 00 00
 (1648944019.537795)  can0  1E5   [8]  1C 01 71 50 00 00 01 1A
 (1648944019.538263)  can0  014   [5]  00 00 00 10 27
 (1648944019.544494)  can0  012   [8]  E8 03 10 00 00 00 00 00
 (1648944019.547774)  can0  1E5   [8]  1C 01 71 70 00 00 01 3A
 (1648944019.548262)  can0  014   [5]  00 00 00 10 27
 (1648944019.554496)  can0  012   [8]  E8 03 10 00 00 00 00 00
 (1648944019.557771)  can0  1E5   [8]  1C 01 71 10 00 00 00 DA
 (1648944019.558261)  can0  014   [5]  00 00 00 10 27
 (1648944019.564512)  can0  012   [8]  E8 03 10 00 00 00 00 00
 (1648944019.567776)  can0  1E5   [8]  1C 01 71 30 00 00 00 FA
 (1648944019.568265)  can0  014   [5]  00 00 00 10 27
 (1648944019.574496)  can0  012   [8]  E8 03 10 00 00 00 00 00
 (1648944019.577770)  can0  1E5   [8]  1C 01 71 50 00 00 01 1A
 (1648944019.578266)  can0  014   [5]  00 00 00 10 27
 (1648944019.584502)  can0  012   [8]  E8 03 10 00 00 00 00 00
 (1648944019.587624)  can0  010   [4]  26 73 00 01
 (1648944019.587871)  can0  1E5   [8]  1C 01 71 70 00 00 01 3A
 (1648944019.588118)  can0  005   [8]  00 00 88 13 00 00 00 00
 (1648944019.588293)  can0  014   [5]  00 00 00 14 27
 (1648944019.594595)  can0  012   [8]  E8 03 10 00 00 00 00 00
 (1648944019.597805)  can0  1E5   [8]  1C 01 71 10 00 00 00 DA
 (1648944019.598286)  can0  014   [5]  00 00 00 10 27
 (1648944019.604558)  can0  012   [8]  E8 03 10 00 00 00 00 00
 (1648944019.607815)  can0  1E5   [8]  1C 01 71 30 00 00 00 FA
 (1648944019.608278)  can0  014   [5]  00 00 00 0C 27
 (1648944019.614552)  can0  012   [8]  E8 03 10 00 00 00 00 00
 (1648944019.617800)  can0  1E5   [8]  1C 01 71 50 00 00 01 1A
 (1648944019.618277)  can0  014   [5]  00 00 00 10 27
 (1648944019.624512)  can0  012   [8]  E8 03 10 00 00 00 00 00
 (1648944019.627813)  can0  1E5   [8]  1C 01 71 70 00 00 01 3A
 (1648944019.628282)  can0  014   [5]  00 00 00 10 27
 (1648944019.634517)  can0  012   [8]  E8 03 10 00 00 00 00 00
 (1648944019.637833)  can0  1E5   [8]  1C 01 71 10 00 00 00 DA
 (1648944019.638287)  can0  014   [5]  00 00 00 10 27
 (1648944019.644512)  can0  012   [8]  E8 03 10 00 00 00 00 00
 (1648944019.647795)  can0  1E5   [8]  1C 01 71 30 00 00 00 FA
 (1648944019.648296)  can0  014   [5]  00 00 00 10 27
 (1648944019.654561)  can0  012   [8]  E8 03 10 00 00 00 00 00
 (1648944019.657782)  can0  1E5   [8]  1C 01 71 50 00 00 01 1A
 (1648944019.658287)  can0  014   [5]  00 00 00 10 27
 (1648944019.664532)  can0  012   [8]  E8 03 10 00 00 00 00 00
 (1648944019.667826)  can0  1E5   [8]  1C 01 71 70 00 00 01 3A
 (1648944019.668284)  can0  014   [5]  00 00 00 10 27
 (1648944019.674544)  can0  012   [8]  E8 03 10 00 00 00 00 00
 (1648944019.677785)  can0  1E5   [8]  1C 01 71 10 00 00 00 DA
 (1648944019.678278)  can0  014   [5]  00 00 00 10 27
 (1648944019.684564)  can0  012   [8]  E8 03 10 00 00 00 00 00
 (1648944019.687685)  can0  010   [4]  26 73 00 01
 (1648944019.687886)  can0  1E5   [8]  1C 01 71 30 00 00 00 FA
 (1648944019.688111)  can0  005   [8]  00 00 88 13 00 00 00 00
 (1648944019.688308)  can0  014   [5]  00 00 00 14 27
 (1648944019.688430)  can0  0E2   [2]  B2 01
 (1648944019.688598)  can0  0E4   [2]  B2 01
 (1648944019.694509)  can0  012   [8]  E8 03 10 00 00 00 00 00
 (1648944019.697842)  can0  1E5   [8]  1C 01 71 50 00 00 01 1A
 (1648944019.698298)  can0  014   [5]  00 00 00 13 27
 (1648944019.704548)  can0  012   [8]  E8 03 10 00 00 00 00 00
 (1648944019.707778)  can0  1E5   [8]  1C 01 71 70 00 00 01 3A
 (1648944019.708284)  can0  014   [5]  00 00 00 09 27
 (1648944019.714543)  can0  012   [8]  E8 03 10 00 00 00 00 00
 (1648944019.717820)  can0  1E5   [8]  1C 01 71 10 00 00 00 DA
 (1648944019.718361)  can0  014   [5]  00 00 00 10 27
 (1648944019.724495)  can0  012   [8]  E8 03 10 00 00 00 00 00
 (1648944019.727770)  can0  1E5   [8]  1C 01 71 30 00 00 00 FA
 (1648944019.728264)  can0  014   [5]  00 00 00 10 27
 (1648944019.734534)  can0  012   [8]  E8 03 10 00 00 00 00 00
 (1648944019.737805)  can0  1E5   [8]  1C 01 71 50 00 00 01 1A
 (1648944019.738334)  can0  014   [5]  00 00 00 10 27
 (1648944019.744516)  can0  012   [8]  E8 03 10 00 00 00 00 00
 (1648944019.747811)  can0  1E5   [8]  1C 01 71 70 00 00 01 3A
 (1648944019.748266)  can0  014   [5]  00 00 00 10 27
 (1648944019.754547)  can0  012   [8]  E8 03 10 00 00 00 00 00
 (1648944019.757813)  can0  1E5   [8]  1C 01 71 10 00 00 00 DA
 (1648944019.758265)  can0  014   [5]  00 00 00 10 27
 (1648944019.764513)  can0  012   [8]  E8 03 10 00 00 00 00 00
 (1648944019.767813)  can0  1E5   [8]  1C 01 71 30 00 00 00 FA
 (1648944019.768269)  can0  014   [5]  00 00 00 10 27
 (1648944019.774543)  can0  012   [8]  E8 03 10 00 00 00 00 00
 (1648944019.777820)  can0  1E5   [8]  1C 01 71 50 00 00 01 1A
 (1648944019.778302)  can0  014   [5]  00 00 00 10 27
 (1648944019.784539)  can0  012   [8]  E8 03 10 00 00 00 00 00
 (1648944019.787624)  can0  010   [4]  26 73 00 01
 (1648944019.787868)  can0  1E5   [8]  1C 01 71 70 00 00 01 3A
 (1648944019.788089)  can0  005   [8]  00 00 88 13 00 00 00 00
 (1648944019.788287)  can0  014   [5]  00 00 00 14 27
 (1648944019.794568)  can0  012   [8]  E8 03 10 00 00 00 00 00
 (1648944019.797817)  can0  1E5   [8]  1C 01 71 10 00 00 00 DA
 (1648944019.798306)  can0  014   [5]  00 00 00 10 27
 (1648944019.804546)  can0  012   [8]  E8 03 10 00 00 00 00 00
 (1648944019.807806)  can0  1E5   [8]  1C 01 71 30 00 00 00 FA
 (1648944019.808304)  can0  014   [5]  00 00 00 0C 27
 (1648944019.814512)  can0  012   [8]  E8 03 10 00 00 00 00 00
 (1648944019.817827)  can0  1E5   [8]  1C 01 71 50 00 00 01 1A
 (1648944019.818308)  can0  014   [5]  00 00 00 10 27
 (1648944019.824504)  can0  012   [8]  E8 03 10 00 00 00 00 00
 (1648944019.827777)  can0  1E5   [8]  1C 01 71 70 00 00 01 3A
 (1648944019.828297)  can0  014   [5]  00 00 00 10 27
 (1648944019.834549)  can0  012   [8]  E8 03 10 00 00 00 00 00
 (1648944019.837832)  can0  1E5   [8]  1C 01 71 10 00 00 00 DA
 (1648944019.838314)  can0  014   [5]  00 00 00 10 27
 (1648944019.844562)  can0  012   [8]  E8 03 10 00 00 00 00 00
 (1648944019.847783)  can0  1E5   [8]  1C 01 71 30 00 00 00 FA
 (1648944019.848273)  can0  014   [5]  00 00 00 10 27
 (1648944019.854543)  can0  012   [8]  E8 03 10 00 00 00 00 00
 (1648944019.857814)  can0  1E5   [8]  1C 01 71 50 00 00 01 1A
 (1648944019.858307)  can0  014   [5]  00 00 00 10 27
 (1648944019.864542)  can0  012   [8]  E8 03 10 00 00 00 00 00
 (1648944019.867822)  can0  1E5   [8]  1C 01 71 70 00 00 01 3A
 (1648944019.868273)  can0  014   [5]  00 00 00 10 27
 (1648944019.874506)  can0  012   [8]  E8 03 10 00 00 00 00 00
 (1648944019.877781)  can0  1E5   [8]  1C 01 71 10 00 00 00 DA
 (1648944019.878273)  can0  014   [5]  00 00 00 10 27
 (1648944019.884582)  can0  012   [8]  E8 03 10 00 00 00 00 00
 (1648944019.887681)  can0  010   [4]  26 73 00 01
 (1648944019.887872)  can0  1E5   [8]  1C 01 71 30 00 00 00 FA
 (1648944019.888158)  can0  005   [8]  00 00 88 13 00 00 00 00
 (1648944019.888290)  can0  014   [5]  00 00 00 14 27
 (1648944019.894564)  can0  012   [8]  E8 03 10 00 00 00 00 00
 (1648944019.897862)  can0  1E5   [8]  1C 01 71 50 00 00 01 1A
 (1648944019.898311)  can0  014   [5]  00 00 00 10 27
 (1648944019.904562)  can0  012   [8]  E8 03 10 00 00 00 00 00
 (1648944019.907857)  can0  1E5   [8]  1C 01 71 70 00 00 01 3A
 (1648944019.908355)  can0  014   [5]  00 00 00 0C 27
 (1648944019.914627)  can0  012   [8]  E8 03 10 00 00 00 00 00
 (1648944019.917885)  can0  1E5   [8]  1C 01 71 10 00 00 00 DA
 (1648944019.918323)  can0  014   [5]  00 00 00 10 27
 (1648944019.924560)  can0  012   [8]  E8 03 10 00 00 00 00 00
 (1648944019.927786)  can0  1E5   [8]  1C 01 71 30 00 00 00 FA
 (1648944019.928286)  can0  014   [5]  00 00 00 10 27
 (1648944019.934597)  can0  012   [8]  E8 03 10 00 00 00 00 00
 (1648944019.937809)  can0  1E5   [8]  1C 01 71 50 00 00 01 1A
 (1648944019.938326)  can0  014   [5]  00 00 00 10 27
 (1648944019.944601)  can0  012   [8]  E8 03 10 00 00 00 00 00
 (1648944019.947905)  can0  1E5   [8]  1C 01 71 70 00 00 01 3A
 (1648944019.948302)  can0  014   [5]  00 00 00 10 27
 (1648944019.954573)  can0  012   [8]  E8 03 10 00 00 00 00 00
 (1648944019.957846)  can0  1E5   [8]  1C 01 71 10 00 00 00 DA
 (1648944019.958304)  can0  014   [5]  00 00 00 10 27
 (1648944019.964580)  can0  012   [8]  E8 03 10 00 00 00 00 00
 (1648944019.967870)  can0  1E5   [8]  1C 01 71 30 00 00 00 FA
 (1648944019.968327)  can0  014   [5]  00 00 00 10 27
 (1648944019.974544)  can0  012   [8]  E8 03 10 00 00 00 00 00
 (1648944019.977805)  can0  1E5   [8]  1C 01 71 50 00 00 01 1A
 (1648944019.978301)  can0  014   [5]  00 00 00 10 27
 (1648944019.984559)  can0  012   [8]  E8 03 10 00 00 00 00 00
 (1648944019.987695)  can0  010   [4]  26 73 00 01
 (1648944019.987880)  can0  1E5   [8]  1C 01 71 70 00 00 01 3A
 (1648944019.988125)  can0  005   [8]  00 00 88 13 00 00 00 00
 (1648944019.988299)  can0  014   [5]  00 00 00 14 27
 (1648944019.994616)  can0  012   [8]  E8 03 10 00 00 00 00 00
 (1648944019.997824)  can0  1E5   [8]  1C 01 71 10 00 00 00 DA
 (1648944019.998303)  can0  014   [5]  00 00 00 10 27
 (1648944020.004799)  can0  012   [8]  E8 03 10 00 00 00 00 00
 (1648944020.007876)  can0  1E5   [8]  1C 01 71 30 00 00 00 FA
 (1648944020.008330)  can0  014   [5]  00 00 00 0C 27
 (1648944020.014569)  can0  012   [8]  E8 03 10 00 00 00 00 00
 (1648944020.017848)  can0  1E5   [8]  1C 01 71 50 00 00 01 1A
 (1648944020.018348)  can0  014   [5]  00 00 00 10 27
 (1648944020.024533)  can0  012   [8]  E8 03 10 00 00 00 00 00
 (1648944020.027805)  can0  1E5   [8]  1C 01 71 70 00 00 01 3A
 (1648944020.028308)  can0  014   [5]  00 00 00 10 27
 (1648944020.034581)  can0  012   [8]  E8 03 10 00 00 00 00 00
 (1648944020.037885)  can0  1E5   [8]  1C 01 71 10 00 00 00 DA
 (1648944020.038334)  can0  014   [5]  00 00 00 10 27
 (1648944020.044564)  can0  012   [8]  E8 03 10 00 00 00 00 00
 (1648944020.047871)  can0  1E5   [8]  1C 01 71 30 00 00 00 FA
 (1648944020.048317)  can0  014   [5]  00 00 00 10 27
 (1648944020.054580)  can0  012   [8]  E8 03 10 00 00 00 00 00
 (1648944020.057827)  can0  1E5   [8]  1C 01 71 50 00 00 01 1A
 (1648944020.058320)  can0  014   [5]  00 00 00 10 27
 (1648944020.064575)  can0  012   [8]  E8 03 10 00 00 00 00 00
 (1648944020.067826)  can0  1E5   [8]  1C 01 71 70 00 00 01 3A
 (1648944020.068338)  can0  014   [5]  00 00 00 10 27
 (1648944020.074568)  can0  012   [8]  E8 03 10 00 00 00 00 00
 (1648944020.077898)  can0  1E5   [8]  1C 01 71 10 00 00 00 DA
 (1648944020.078319)  can0  014   [5]  00 00 00 10 27
 (1648944020.084555)  can0  012   [8]  E8 03 10 00 00 00 00 00
 (1648944020.087709)  can0  010   [4]  26 73 00 01
 (1648944020.087886)  can0  1E5   [8]  1C 01 71 30 00 00 00 FA
 (1648944020.088131)  can0  005   [8]  00 00 88 13 00 00 00 00
 (1648944020.088333)  can0  014   [5]  00 00 00 14 27
 (1648944020.094597)  can0  012   [8]  E8 03 10 00 00 00 00 00
 (1648944020.097864)  can0  1E5   [8]  1C 01 71 50 00 00 01 1A
 (1648944020.098323)  can0  014   [5]  00 00 00 10 27
 (1648944020.104563)  can0  012   [8]  E8 03 10 00 00 00 00 00
 (1648944020.107860)  can0  1E5   [8]  1C 01 71 70 00 00 01 3A
 (1648944020.108321)  can0  014   [5]  00 00 00 0C 27
 (1648944020.114555)  can0  012   [8]  E8 03 10 00 00 00 00 00
 (1648944020.117854)  can0  1E5   [8]  1C 01 71 10 00 00 00 DA
 (1648944020.118368)  can0  014   [5]  00 00 00 10 27
 (1648944020.124546)  can0  012   [8]  E8 03 10 00 00 00 00 00
 (1648944020.127899)  can0  1E5   [8]  1C 01 71 30 00 00 00 FA
 (1648944020.128311)  can0  014   [5]  00 00 00 10 27
 (1648944020.134560)  can0  012   [8]  E8 03 10 00 00 00 00 00
 (1648944020.137795)  can0  1E5   [8]  1C 01 71 50 00 00 01 1A
 (1648944020.138319)  can0  014   [5]  00 00 00 10 27
 (1648944020.144576)  can0  012   [8]  E8 03 10 00 00 00 00 00
 (1648944020.148114)  can0  1E5   [8]  1C 01 71 70 00 00 01 3A
 (1648944020.148302)  can0  014   [5]  00 00 00 10 27
 (1648944020.154566)  can0  012   [8]  E8 03 10 00 00 00 00 00
 (1648944020.157822)  can0  1E5   [8]  1C 01 71 10 00 00 00 DA
 (1648944020.158322)  can0  014   [5]  00 00 00 10 27
 (1648944020.164878)  can0  012   [8]  E8 03 10 00 00 00 00 00
 (1648944020.167818)  can0  1E5   [8]  1C 01 71 30 00 00 00 FA
 (1648944020.168318)  can0  014   [5]  00 00 00 10 27
 (1648944020.174522)  can0  012   [8]  E8 03 10 00 00 00 00 00
 (1648944020.177910)  can0  1E5   [8]  1C 01 71 50 00 00 01 1A
 (1648944020.178319)  can0  014   [5]  00 00 00 10 27
 (1648944020.184534)  can0  012   [8]  E8 03 10 00 00 00 00 00
 (1648944020.187681)  can0  010   [4]  26 73 00 01
 (1648944020.187890)  can0  1E5   [8]  1C 01 71 70 00 00 01 3A
 (1648944020.188209)  can0  005   [8]  00 00 88 13 00 00 00 00
 (1648944020.188379)  can0  014   [5]  00 00 00 14 27
 (1648944020.194549)  can0  012   [8]  E8 03 10 00 00 00 00 00
 (1648944020.197832)  can0  1E5   [8]  1C 01 71 10 00 00 00 DA
 (1648944020.198366)  can0  014   [5]  00 00 00 10 27
 (1648944020.204568)  can0  012   [8]  E8 03 10 00 00 00 00 00
 (1648944020.207823)  can0  1E5   [8]  1C 01 71 30 00 00 00 FA
 (1648944020.208299)  can0  014   [5]  00 00 00 0C 27
 (1648944020.214601)  can0  012   [8]  E8 03 10 00 00 00 00 00
 (1648944020.217869)  can0  1E5   [8]  1C 01 71 50 00 00 01 1A
 (1648944020.218332)  can0  014   [5]  00 00 00 10 27
 (1648944020.224523)  can0  012   [8]  E8 03 10 00 00 00 00 00
 (1648944020.227906)  can0  1E5   [8]  1C 01 71 70 00 00 01 3A
 (1648944020.228304)  can0  014   [5]  00 00 00 10 27
 (1648944020.234810)  can0  012   [8]  E8 03 10 00 00 00 00 00
 (1648944020.237851)  can0  1E5   [8]  1C 01 71 10 00 00 00 DA
 (1648944020.238333)  can0  014   [5]  00 00 00 10 27
 (1648944020.244531)  can0  012   [8]  E8 03 10 00 00 00 00 00
 (1648944020.247845)  can0  1E5   [8]  1C 01 71 30 00 00 00 FA
 (1648944020.248362)  can0  014   [5]  00 00 00 10 27
 (1648944020.254573)  can0  012   [8]  E8 03 10 00 00 00 00 00
 (1648944020.257849)  can0  1E5   [8]  1C 01 71 50 00 00 01 1A
 (1648944020.258382)  can0  014   [5]  00 00 00 10 27
 (1648944020.264580)  can0  012   [8]  E8 03 10 00 00 00 00 00
 (1648944020.267873)  can0  1E5   [8]  1C 01 71 70 00 00 01 3A
 (1648944020.268364)  can0  014   [5]  00 00 00 10 27
 (1648944020.274575)  can0  012   [8]  E8 03 10 00 00 00 00 00
 (1648944020.277864)  can0  1E5   [8]  1C 01 71 10 00 00 00 DA
 (1648944020.278329)  can0  014   [5]  00 00 00 10 27
 (1648944020.284799)  can0  012   [8]  E8 03 10 00 00 00 00 00
 (1648944020.287733)  can0  010   [4]  26 73 00 01
 (1648944020.287965)  can0  1E5   [8]  1C 01 71 30 00 00 00 FA
 (1648944020.288147)  can0  005   [8]  00 00 88 13 00 00 00 00
 (1648944020.288347)  can0  014   [5]  00 00 00 14 27
 (1648944020.294611)  can0  012   [8]  E8 03 10 00 00 00 00 00
 (1648944020.297853)  can0  1E5   [8]  1C 01 71 50 00 00 01 1A
 (1648944020.298330)  can0  014   [5]  00 00 00 10 27
 (1648944020.304549)  can0  012   [8]  E8 03 10 00 00 00 00 00
 (1648944020.307798)  can0  1E5   [8]  1C 01 71 70 00 00 01 3A
 (1648944020.308324)  can0  014   [5]  00 00 00 0C 27
 (1648944020.314536)  can0  012   [8]  E8 03 10 00 00 00 00 00
 (1648944020.317805)  can0  1E5   [8]  1C 01 71 10 00 00 00 DA
 (1648944020.318300)  can0  014   [5]  00 00 00 10 27
 (1648944020.324522)  can0  012   [8]  E8 03 10 00 00 00 00 00
 (1648944020.327869)  can0  1E5   [8]  1C 01 71 30 00 00 00 FA
 (1648944020.328329)  can0  014   [5]  00 00 00 10 27
 (1648944020.334570)  can0  012   [8]  E8 03 10 00 00 00 00 00
 (1648944020.337809)  can0  1E5   [8]  1C 01 71 50 00 00 01 1A
 (1648944020.338368)  can0  014   [5]  00 00 00 10 27
 (1648944020.344534)  can0  012   [8]  E8 03 10 00 00 00 00 00
 (1648944020.347799)  can0  1E5   [8]  1C 01 71 70 00 00 01 3A
 (1648944020.348323)  can0  014   [5]  00 00 00 10 27
 (1648944020.354524)  can0  012   [8]  E8 03 10 00 00 00 00 00
 (1648944020.357845)  can0  1E5   [8]  1C 01 71 10 00 00 00 DA
 (1648944020.358358)  can0  014   [5]  00 00 00 10 27
 (1648944020.364581)  can0  012   [8]  E8 03 10 00 00 00 00 00
 (1648944020.367806)  can0  1E5   [8]  1C 01 71 30 00 00 00 FA
 (1648944020.368301)  can0  014   [5]  00 00 00 10 27
 (1648944020.374591)  can0  012   [8]  E8 03 10 00 00 00 00 00
 (1648944020.377865)  can0  1E5   [8]  1C 01 71 50 00 00 01 1A
 (1648944020.378408)  can0  014   [5]  00 00 00 10 27
 (1648944020.384569)  can0  012   [8]  E8 03 10 00 00 00 00 00
 (1648944020.387720)  can0  010   [4]  26 73 00 01
 (1648944020.387901)  can0  1E5   [8]  1C 01 71 70 00 00 01 3A
 (1648944020.388159)  can0  005   [8]  00 00 88 13 00 00 00 00
 (1648944020.388326)  can0  014   [5]  00 00 00 14 27
 (1648944020.394531)  can0  012   [8]  E8 03 10 00 00 00 00 00
 (1648944020.397853)  can0  1E5   [8]  1C 01 71 10 00 00 00 DA
 (1648944020.398372)  can0  014   [5]  00 00 00 10 27
 (1648944020.404583)  can0  012   [8]  E8 03 10 00 00 00 00 00
 (1648944020.407847)  can0  1E5   [8]  1C 01 71 30 00 00 00 FA
 (1648944020.408374)  can0  014   [5]  00 00 00 0C 27
 (1648944020.414585)  can0  012   [8]  E8 03 10 00 00 00 00 00
 (1648944020.417802)  can0  1E5   [8]  1C 01 71 50 00 00 01 1A
 (1648944020.418328)  can0  014   [5]  00 00 00 10 27
 (1648944020.424587)  can0  012   [8]  E8 03 10 00 00 00 00 00
 (1648944020.427858)  can0  1E5   [8]  1C 01 71 70 00 00 01 3A
 (1648944020.428342)  can0  014   [5]  00 00 00 10 27
 (1648944020.434571)  can0  012   [8]  E8 03 10 00 00 00 00 00
 (1648944020.437857)  can0  1E5   [8]  1C 01 71 10 00 00 00 DA
 (1648944020.438332)  can0  014   [5]  00 00 00 10 27
 (1648944020.444586)  can0  012   [8]  E8 03 10 00 00 00 00 00
 (1648944020.448135)  can0  1E5   [8]  1C 01 71 30 00 00 00 FA
 (1648944020.448305)  can0  014   [5]  00 00 00 10 27
 (1648944020.454898)  can0  012   [8]  E8 03 10 00 00 00 00 00
 (1648944020.457849)  can0  1E5   [8]  1C 01 71 50 00 00 01 1A
 (1648944020.458390)  can0  014   [5]  00 00 00 10 27
 (1648944020.464573)  can0  012   [8]  E8 03 10 00 00 00 00 00
 (1648944020.467857)  can0  1E5   [8]  1C 01 71 70 00 00 01 3A
 (1648944020.468328)  can0  014   [5]  00 00 00 10 27
 (1648944020.474583)  can0  012   [8]  E8 03 10 00 00 00 00 00
 (1648944020.477865)  can0  1E5   [8]  1C 01 71 10 00 00 00 DA
 (1648944020.478384)  can0  014   [5]  00 00 00 10 27
 (1648944020.484592)  can0  012   [8]  E8 03 10 00 00 00 00 00
 (1648944020.487985)  can0  010   [4]  26 73 00 01
 (1648944020.487994)  can0  1E5   [8]  1C 01 71 30 00 00 00 FA
 (1648944020.488137)  can0  005   [8]  00 00 88 13 00 00 00 00
 (1648944020.488359)  can0  014   [5]  00 00 00 14 27
 (1648944020.494617)  can0  012   [8]  E8 03 10 00 00 00 00 00
 (1648944020.494686)  can0  0E3   [2]  DA 01
 (1648944020.497814)  can0  1E5   [8]  1C 01 71 50 00 00 01 1A
 (1648944020.498341)  can0  014   [5]  00 00 00 13 27
 (1648944020.504894)  can0  012   [8]  E8 03 10 00 00 00 00 00
 (1648944020.507827)  can0  1E5   [8]  1C 01 71 70 00 00 01 3A
 (1648944020.508316)  can0  014   [5]  00 00 00 09 27
